(1604611942.559073) can1 1CEBFF00#1909018406090184
(1604611942.560078) can1 0CF00400#007D7D000000F07D
(1604611942.561078) can1 0CF00A00#00000000FFFFFFFF
(1604611942.562107) can1 18F0000F#207D7DF3007DFE63
(1604611942.569075) can1 0CF00400#007D7D000000F07D
(1604611942.570127) can1 18F00E00#A00FFE71FFFFFFFF
(1604611942.571066) can1 18FEF200#0000FFFEBF05FEFF
(1604611942.572060) can1 18FEDF00#86FFFFFF7DFFFE00
(1604611942.580072) can1 0CF00400#007D7D000000F07D
(1604611942.581072) can1 10FDA300#FFFFFAFFFFFFFFFF
(1604611942.582110) can1 18FEE000#FFFFFFFF0F140A00
(1604611942.590126) can1 0CF00400#007D7D000000F07D
(1604611942.591052) can1 18FF4500#782AFA00FF0000AC
(1604611942.592060) can1 18FEDF00#86FFFFFF7DFFFE00
(1604611942.593059) can1 1CFE9200#FF8097FFFFFFFFFF
(1604611942.600069) can1 0CF00400#007D7D000000F07D
(1604611942.601064) can1 0CF00300#FAFE00FFFF0C00FF
(1604611942.602143) can1 18FEA400#FFFFFFFFFFFF204A
(1604611942.609072) can1 0CF00400#007D7D000000F07D
(1604611942.610129) can1 0CF00A00#00000000FFFFFFFF
(1604611942.611060) can1 18FEDF00#86FFFFFF7DFFFE00
(1604611942.620068) can1 1CEBFF00#1A06090175020501
(1604611942.621071) can1 0CF00400#007D7D000000F07D
(1604611942.622115) can1 18F00E00#A00FFE71FFFFFFFF
(1604611942.623059) can1 18FDD000#FFFFFFFF19FFFFFF
(1604611942.630129) can1 0CF00400#007D7D000000F07D
(1604611942.631051) can1 0CFEF100#FBFFFEAAAA001FFF
(1604611942.632059) can1 18FEDF00#86FFFFFF7DFFFE00
(1604611942.640067) can1 0CF00400#007D7D000000F07D
(1604611942.641067) can1 18FD9400#0000FFFFFFFFFFFF
(1604611942.642123) can1 18FEA600#0000FFFFFFFFFFFF
(1604611942.649072) can1 0CF00400#007D7D000000F07D
(1604611942.650116) can1 0CF00300#FAFE00FFFF0C00FF
(1604611942.651072) can1 18FCFD00#FFFFFFFF0000FFFF
(1604611942.652059) can1 18FEDF00#86FFFFFF7DFFFE00
(1604611942.660067) can1 0CF00400#007D7D000000F07D
(1604611942.661076) can1 0CF00A00#00000000FFFFFFFF
(1604611942.662119) can1 0CFD9200#F0FFFFFFFFC3FFFF
(1604611942.663043) can1 18F0000F#207D7DF3007DFE63
(1604611942.669068) can1 0CF00400#007D7D000000F07D
(1604611942.670123) can1 18F00E00#A00FFE71FFFFFFFF
(1604611942.671065) can1 18FEF200#0000FFFEBF05FEFF
(1604611942.672063) can1 18FF4600#FF000000FFFFFFFF
(1604611942.673060) can1 18FEDF00#86FFFFFF7DFFFE00
(1604611942.680044) can1 1CEBFF00#1BF9130901FA1309
(1604611942.681094) can1 0CF00400#007D7D000000F07D
(1604611942.682131) can1 10FDA300#FFFFFAFFFFFFFFFF
(1604611942.683052) can1 18FEE000#FFFFFFFF0F140A00
(1604611942.690130) can1 0CF00400#007D7D000000F07D
(1604611942.691052) can1 18FF4500#782AFA00FF0000AC
(1604611942.692059) can1 18FEDF00#86FFFFFF7DFFFE00
(1604611942.693059) can1 1CFE9200#FF8097FFFFFFFFFF
(1604611942.700067) can1 0CF00400#007D7D000000F07D
(1604611942.701065) can1 0CF00300#FAFE00FFFF0C00FF
(1604611942.702123) can1 18FFA800#FFFEFFFE04100FFB
(1604611942.709065) can1 0CF00400#007D7D000000F07D
(1604611942.710135) can1 0CF00A00#00000000FFFFFFFF
(1604611942.711059) can1 18FEDF00#86FFFFFF7DFFFE00
(1604611942.720068) can1 0CF00400#007D7D000000F07D
(1604611942.721076) can1 18F00E00#A00FFE71FFFFFFFF
(1604611942.722117) can1 18FE6900#FFFFFFFFFFFF201D
(1604611942.729070) can1 0CF00400#007D7D000000F07D
(1604611942.730114) can1 0CFEF100#FBFFFEAAAA001FFF
(1604611942.731064) can1 18FEDF00#86FFFFFF7DFFFE00
(1604611942.740077) can1 1CEBFF00#1C01FFFFFFFFFFFF
(1604611942.741060) can1 0CF00400#007D7D000000F07D
(1604611942.742124) can1 18FD9400#0000FFFFFFFFFFFF
(1604611942.743059) can1 18FEBD00#FFFF0000FFFFFFFF
(1604611942.749081) can1 0CF00400#007D7D000000F07D
(1604611942.750118) can1 0CF00300#FAFE00FFFF0C00FF
(1604611942.751067) can1 18FCFD00#FFFFFFFF0000FFFF
(1604611942.752060) can1 18FEDF00#86FFFFFF7DFFFE00
(1604611942.760068) can1 0CF00400#007D7D000000F07D
(1604611942.761084) can1 0CF00A00#00000000FFFFFFFF
(1604611942.762105) can1 18F0000F#207D7DF3007DFE63
(1604611942.769072) can1 0CF00400#007D7D000000F07D
(1604611942.770125) can1 18F00E00#A00FFE71FFFFFFFF
(1604611942.771060) can1 18FEF200#0000FFFEBF05FEFF
(1604611942.772060) can1 18FEDF00#86FFFFFF7DFFFE00
(1604611942.780069) can1 0CF00400#007D7D000000F07D
(1604611942.781081) can1 10FDA300#FFFFFAFFFFFFFFFF
(1604611942.782128) can1 18FEE000#FFFFFFFF0F140A00
(1604611942.790142) can1 0CF00400#007D7D000000F07D
(1604611942.791062) can1 18FF4500#782AFA00FF0000AC
(1604611942.792063) can1 18FEDF00#86FFFFFF7DFFFE00
(1604611942.793062) can1 1CFE9200#FF8097FFFFFFFFFF
(1604611942.800071) can1 0CF00400#007D7D000000F07D
(1604611942.801066) can1 0CF00300#FAFE00FFFF0C00FF
(1604611942.802110) can1 18FEE400#A07FFDFCF0FFFFFF
(1604611942.809074) can1 0CF00400#007D7D000000F07D
(1604611942.810131) can1 0CF00A00#00000000FFFFFFFF
(1604611942.811061) can1 18FEDF00#86FFFFFF7DFFFE00
(1604611942.820069) can1 0CF00400#007D7D000000F07D
(1604611942.821052) can1 18F00E00#A00FFE71FFFFFFFF
(1604611942.822124) can1 18FEDD00#FF0000FFFFFFFFFF
(1604611942.830129) can1 0CF00400#007D7D000000F07D
(1604611942.831052) can1 0CFEF100#FBFFFEAAAA001FFF
(1604611942.832061) can1 18FEDF00#86FFFFFF7DFFFE00
(1604611942.840069) can1 0CF00400#007D7D000000F07D
(1604611942.841072) can1 18FD9400#0000FFFFFFFFFFFF
(1604611942.842123) can1 18FE9A00#2027FFFFFFFFFFFF
(1604611942.849069) can1 0CF00400#007D7D000000F07D
(1604611942.850119) can1 0CF00300#FAFE00FFFF0C00FF
(1604611942.851071) can1 18FCFD00#FFFFFFFF0000FFFF
(1604611942.852062) can1 18FEDF00#86FFFFFF7DFFFE00
(1604611942.860075) can1 0CF00400#007D7D000000F07D
(1604611942.861074) can1 0CF00A00#00000000FFFFFFFF
(1604611942.862108) can1 18F0000F#207D7DF3007DFE63
(1604611942.863053) can1 18FE9900#73A7FFFFFFFFFFFF
(1604611942.869078) can1 0CF00400#007D7D000000F07D
(1604611942.870125) can1 18F00E00#A00FFE71FFFFFFFF
(1604611942.871061) can1 18FEF200#0000FFFEBF05FEFF
(1604611942.872061) can1 18FEDF00#86FFFFFF7DFFFE00
(1604611942.880069) can1 0CF00400#007D7D000000F07D
(1604611942.881076) can1 10FDA300#FFFFFAFFFFFFFFFF
(1604611942.882117) can1 18FEE000#FFFFFFFF0F140A00
(1604611942.883060) can1 18FE9800#0032FFFFFFFFFFFF
(1604611942.890131) can1 0CF00400#007D7D000000F07D
(1604611942.891052) can1 18FF4500#782AFA00FF0000AC
(1604611942.892060) can1 18FEDF00#86FFFFFF7DFFFE00
(1604611942.893061) can1 1CFE9200#FF8097FFFFFFFFFF
(1604611942.900068) can1 0CF00400#007D7D000000F07D
(1604611942.901066) can1 0CF00300#FAFE00FFFF0C00FF
(1604611942.902125) can1 18FFA800#FFFEFFFE04100FFB
(1604611942.903065) can1 18FE9700#0032FFFFFFFFFFFF
(1604611942.909078) can1 0CF00400#007D7D000000F07D
(1604611942.910137) can1 0CF00A00#00000000FFFFFFFF
(1604611942.911061) can1 0CFD9200#F0FFFFFFFFC3FFFF
(1604611942.912060) can1 18FEDF00#86FFFFFF7DFFFE00
(1604611942.920070) can1 0CF00400#007D7D000000F07D
(1604611942.921067) can1 18F00E00#A00FFE71FFFFFFFF
(1604611942.922126) can1 18FF4600#FF000000FFFFFFFF
(1604611942.923065) can1 18FDD300#FFFEFFFFFFFFFFFF
(1604611942.929070) can1 0CF00400#007D7D000000F07D
(1604611942.930114) can1 0CFEF100#FBFFFEAAAA001FFF
(1604611942.931060) can1 18FEDF00#86FFFFFF7DFFFE00
(1604611942.932048) can1 18FEC100#81F5FB0081F5FB00
(1604611942.940069) can1 0CF00400#007D7D000000F07D
(1604611942.941077) can1 18FD9400#0000FFFFFFFFFFFF
(1604611942.942132) can1 18FD8C00#FFFEFFFFFFFFFFFF
(1604611942.943056) can1 18FEF700#FFFFFFFFEA00FFFF
(1604611942.950131) can1 0CF00400#007D7D000000F07D
(1604611942.951062) can1 0CF00300#FAFE00FFFF0C00FF
(1604611942.952069) can1 18FCFD00#FFFFFFFF0000FFFF
(1604611942.953061) can1 18FEDF00#86FFFFFF7DFFFE00
(1604611942.960069) can1 0CF00400#007D7D000000F07D
(1604611942.961080) can1 0CF00A00#00000000FFFFFFFF
(1604611942.962111) can1 18F0000F#207D7DF3007DFE63
(1604611942.963058) can1 18FF4A00#6F00C0FFFFFFFFFF
(1604611942.969075) can1 0CF00400#007D7D000000F07D
(1604611942.970124) can1 18F00E00#A00FFE71FFFFFFFF
(1604611942.971061) can1 18FEF200#0000FFFEBF05FEFF
(1604611942.972061) can1 18FEDF00#86FFFFFF7DFFFE00
(1604611942.980070) can1 0CF00400#007D7D000000F07D
(1604611942.981075) can1 10FDA300#FFFFFAFFFFFFFFFF
(1604611942.982117) can1 18FEE000#FFFFFFFF0F140A00
(1604611942.983040) can1 18FD0900#FFFFFFFF0C78B601
(1604611942.990131) can1 0CF00400#007D7D000000F07D
(1604611942.991053) can1 18FF4500#782AFA00FF0000AC
(1604611942.992061) can1 18FEDF00#86FFFFFF7DFFFE00
(1604611942.993062) can1 1CFE9200#FF8097FFFFFFFFFF
(1604611943.000083) can1 0CF00400#007D7D000000F07D
(1604611943.001075) can1 0CF00300#FAFE00FFFF0C00FF
(1604611943.002129) can1 18FEEF00#FEFFFFFEFFFFFF00
(1604611943.003067) can1 18FF4800#0000F3FF00000000
(1604611943.009072) can1 0CF00400#007D7D000000F07D
(1604611943.010127) can1 0CF00A00#00000000FFFFFFFF
(1604611943.011062) can1 18FEDF00#86FFFFFF7DFFFE00
(1604611943.020070) can1 0CF00400#007D7D000000F07D
(1604611943.021068) can1 18F00E00#A00FFE71FFFFFFFF
(1604611943.022134) can1 18FEDB00#FFFF0000FFFFFFFF
(1604611943.029070) can1 0CF00400#007D7D000000F07D
(1604611943.030114) can1 0CFEF100#FBFFFEAAAA001FFF
(1604611943.031065) can1 18FEDF00#86FFFFFF7DFFFE00
(1604611943.040070) can1 0CF00400#007D7D000000F07D
(1604611943.041070) can1 18FD9400#0000FFFFFFFFFFFF
(1604611943.042114) can1 18FEF600#FEFEFEFEFFFFFEFF
(1604611943.049071) can1 0CF00400#007D7D000000F07D
(1604611943.050122) can1 0CF00300#FAFE00FFFF0C00FF
(1604611943.051073) can1 18FCFD00#FFFFFFFF0000FFFF
(1604611943.052064) can1 18FEDF00#86FFFFFF7DFFFE00
(1604611943.060073) can1 0CF00400#007D7D000000F07D
(1604611943.061080) can1 0CF00A00#00000000FFFFFFFF
(1604611943.062111) can1 18F0000F#207D7DF3007DFE63
(1604611943.069083) can1 0CF00400#007D7D000000F07D
(1604611943.070143) can1 18F00E00#A00FFE71FFFFFFFF
(1604611943.071065) can1 18FEF200#0000FFFEBF05FEFF
(1604611943.072058) can1 18FEDF00#86FFFFFF7DFFFE00
(1604611943.080072) can1 0CF00400#007D7D000000F07D
(1604611943.081078) can1 10FDA300#FFFFFAFFFFFFFFFF
(1604611943.082120) can1 18FEE000#FFFFFFFF0F140A00
(1604611943.090132) can1 0CF00400#007D7D000000F07D
(1604611943.091065) can1 18FF4500#782AFA00FF0000AC
(1604611943.092062) can1 18FEDF00#86FFFFFF7DFFFE00
(1604611943.093062) can1 1CFE9200#FF8097FFFFFFFFFF
(1604611943.100072) can1 0CF00400#007D7D000000F07D
(1604611943.101071) can1 0CF00300#FAFE00FFFF0C00FF
(1604611943.102127) can1 18FFA800#FFFEFFFE04100FFB
(1604611943.109067) can1 0CF00400#007D7D000000F07D
(1604611943.110133) can1 0CF00A00#00000000FFFFFFFF
(1604611943.111062) can1 18FEDF00#86FFFFFF7DFFFE00
(1604611943.120070) can1 0CF00400#007D7D000000F07D
(1604611943.121054) can1 18F00E00#A00FFE71FFFFFFFF
(1604611943.122127) can1 18FDD000#FFFFFFFF19FFFFFF
(1604611943.129083) can1 0CF00400#007D7D000000F07D
(1604611943.130116) can1 0CFEF100#FBFFFEAAAA001FFF
(1604611943.131062) can1 18FEDF00#86FFFFFF7DFFFE00
(1604611943.140070) can1 0CF00400#007D7D000000F07D
(1604611943.141071) can1 18FD9400#0000FFFFFFFFFFFF
(1604611943.142126) can1 18FEA600#0000FFFFFFFFFFFF
(1604611943.149080) can1 0CF00400#007D7D000000F07D
(1604611943.150120) can1 0CF00300#FAFE00FFFF0C00FF
(1604611943.151071) can1 18FCFD00#FFFFFFFF0000FFFF
(1604611943.152063) can1 18FEDF00#86FFFFFF7DFFFE00
(1604611943.160071) can1 0CF00400#007D7D000000F07D
(1604611943.161080) can1 0CF00A00#00000000FFFFFFFF
(1604611943.162122) can1 0CFD9200#F0FFFFFFFFC3FFFF
(1604611943.163047) can1 18F0000F#207D7DF3007DFE63
(1604611943.169081) can1 0CF00400#007D7D000000F07D
(1604611943.170126) can1 18F00E00#A00FFE71FFFFFFFF
(1604611943.171069) can1 18FEF200#0000FFFEBF05FEFF
(1604611943.172067) can1 18FF4600#FF000000FFFFFFFF
(1604611943.173062) can1 18FEDF00#86FFFFFF7DFFFE00
(1604611943.180067) can1 0CF00400#007D7D000000F07D
(1604611943.181074) can1 10FDA300#FFFFFAFFFFFFFFFF
(1604611943.182115) can1 18FEE000#FFFFFFFF0F140A00
(1604611943.190135) can1 0CF00400#007D7D000000F07D
(1604611943.191056) can1 18FF4500#782AFA00FF0000AC
(1604611943.192077) can1 18FEDF00#86FFFFFF7DFFFE00
(1604611943.193069) can1 1CFE9200#FF8097FFFFFFFFFF
(1604611943.200073) can1 0CF00400#007D7D000000F07D
(1604611943.201068) can1 0CF00300#FAFE00FFFF0C00FF
(1604611943.202106) can1 18FFA600#F0FFFEA7FAFA8A01
(1604611943.209072) can1 0CF00400#007D7D000000F07D
(1604611943.210133) can1 0CF00A00#00000000FFFFFFFF
(1604611943.211063) can1 18FEDF00#86FFFFFF7DFFFE00
(1604611943.220071) can1 0CF00400#007D7D000000F07D
(1604611943.221054) can1 18F00E00#A00FFE71FFFFFFFF
(1604611943.222123) can1 18FEF500#A9FFFFFFFEFFFFFF
(1604611943.229084) can1 0CF00400#007D7D000000F07D
(1604611943.230117) can1 0CFEF100#FBFFFEAAAA001FFF
(1604611943.231072) can1 18FEDF00#86FFFFFF7DFFFE00
(1604611943.240078) can1 0CF00400#007D7D000000F07D
(1604611943.241069) can1 18FD9400#0000FFFFFFFFFFFF
(1604611943.242114) can1 18FE5600#FE3CFFFF9FBF00FF
(1604611943.249082) can1 0CF00400#007D7D000000F07D
(1604611943.250128) can1 0CF00300#FAFE00FFFF0C00FF
(1604611943.251075) can1 18FCFD00#FFFFFFFF0000FFFF
(1604611943.252064) can1 18FEDF00#86FFFFFF7DFFFE00
(1604611943.260072) can1 0CF00400#007D7D000000F07D
(1604611943.261087) can1 0CF00A00#00000000FFFFFFFF
(1604611943.262112) can1 18F0000F#207D7DF3007DFE63
(1604611943.269073) can1 0CF00400#007D7D000000F07D
(1604611943.270127) can1 18F00E00#A00FFE71FFFFFFFF
(1604611943.271063) can1 18FEF200#0000FFFEBF05FEFF
(1604611943.272063) can1 18FEDF00#86FFFFFF7DFFFE00
(1604611943.280073) can1 0CF00400#007D7D000000F07D
(1604611943.281075) can1 10FDA300#FFFFFAFFFFFFFFFF
(1604611943.282120) can1 18FEE000#FFFFFFFF0F140A00
(1604611943.290133) can1 0CF00400#007D7D000000F07D
(1604611943.291057) can1 18FF4500#782AFA00FF0000AC
(1604611943.292064) can1 18FEDF00#86FFFFFF7DFFFE00
(1604611943.293067) can1 1CFE9200#FF8097FFFFFFFFFF
(1604611943.300072) can1 0CF00400#007D7D000000F07D
(1604611943.301069) can1 0CF00300#FAFE00FFFF0C00FF
(1604611943.302127) can1 18FFA800#FFFEFFFE04100FFB
(1604611943.309081) can1 0CF00400#007D7D000000F07D
(1604611943.310139) can1 0CF00A00#00000000FFFFFFFF
(1604611943.311063) can1 18FEDF00#86FFFFFF7DFFFE00
(1604611943.320121) can1 0CF00400#007D7D000000F07D
(1604611943.321068) can1 18F00E00#A00FFE71FFFFFFFF
(1604611943.322148) can1 18FD0700#57FFFFFFFFFFFFFF
(1604611943.329075) can1 0CF00400#007D7D000000F07D
(1604611943.330118) can1 0CFEF100#FBFFFEAAAA001FFF
(1604611943.331064) can1 18FEDF00#86FFFFFF7DFFFE00
(1604611943.340073) can1 0CF00400#007D7D000000F07D
(1604611943.341072) can1 18FD9400#0000FFFFFFFFFFFF
(1604611943.342132) can1 18FD7C00#FFFFFBFFFFFFFFFF
(1604611943.349073) can1 0CF00400#007D7D000000F07D
(1604611943.350121) can1 0CF00300#FAFE00FFFF0C00FF
(1604611943.351072) can1 18FCFD00#FFFFFFFF0000FFFF
(1604611943.352064) can1 18FEDF00#86FFFFFF7DFFFE00
(1604611943.360072) can1 0CF00400#007D7D000000F07D
(1604611943.361080) can1 0CF00A00#00000000FFFFFFFF
(1604611943.362111) can1 18F0000F#207D7DF3007DFE63
(1604611943.369073) can1 0CF00400#007D7D000000F07D
(1604611943.370127) can1 18F00E00#A00FFE71FFFFFFFF
(1604611943.371065) can1 18FEF200#0000FFFEBF05FEFF
(1604611943.372065) can1 18FEDF00#86FFFFFF7DFFFE00
(1604611943.380072) can1 0CF00400#007D7D000000F07D
(1604611943.381075) can1 10FDA300#FFFFFAFFFFFFFFFF
(1604611943.382120) can1 18FEE000#FFFFFFFF0F140A00
(1604611943.390133) can1 0CF00400#007D7D000000F07D
(1604611943.391056) can1 18FF4500#782AFA00FF0000AC
(1604611943.392064) can1 18FEDF00#86FFFFFF7DFFFE00
(1604611943.393064) can1 1CFE9200#FF8097FFFFFFFFFF
(1604611943.400073) can1 0CF00400#007D7D000000F07D
(1604611943.401061) can1 0CF00300#FAFE00FFFF0C00FF
(1604611943.402128) can1 18FEEE00#FEFEFFFEFFFFFFFF
(1604611943.409078) can1 0CF00400#007D7D000000F07D
(1604611943.410134) can1 0CF00A00#00000000FFFFFFFF
(1604611943.411065) can1 0CFD9200#F0FFFFFFFFC3FFFF
(1604611943.412065) can1 18FEDF00#86FFFFFF7DFFFE00
(1604611943.420074) can1 0CF00400#007D7D000000F07D
(1604611943.421073) can1 18F00E00#A00FFE71FFFFFFFF
(1604611943.422129) can1 18FF4600#FF000000FFFFFFFF
(1604611943.430129) can1 0CF00400#007D7D000000F07D
(1604611943.431057) can1 0CFEF100#FBFFFEAAAA001FFF
(1604611943.432065) can1 18FEDF00#86FFFFFF7DFFFE00
(1604611943.440073) can1 0CF00400#007D7D000000F07D
(1604611943.441077) can1 18FD9400#0000FFFFFFFFFFFF
(1604611943.442137) can1 18FD8C00#FFFEFFFFFFFFFFFF
(1604611943.449077) can1 0CF00400#007D7D000000F07D
(1604611943.450118) can1 0CF00300#FAFE00FFFF0C00FF
(1604611943.451082) can1 18FCFD00#FFFFFFFF0000FFFF
(1604611943.452066) can1 18FEDF00#86FFFFFF7DFFFE00
(1604611943.460074) can1 0CF00400#007D7D000000F07D
(1604611943.461081) can1 0CF00A00#00000000FFFFFFFF
(1604611943.462113) can1 18F0000F#207D7DF3007DFE63
(1604611943.469075) can1 0CF00400#007D7D000000F07D
(1604611943.470116) can1 18F00E00#A00FFE71FFFFFFFF
(1604611943.471067) can1 18FEF200#0000FFFEBF05FEFF
(1604611943.472069) can1 18FEDF00#86FFFFFF7DFFFE00
(1604611943.480080) can1 0CF00400#007D7D000000F07D
(1604611943.481081) can1 10FDA300#FFFFFAFFFFFFFFFF
(1604611943.482123) can1 18FEE000#FFFFFFFF0F140A00
(1604611943.490136) can1 0CF00400#007D7D000000F07D
(1604611943.491069) can1 18FF4500#782AFA00FF0000AC
(1604611943.492065) can1 18FEDF00#86FFFFFF7DFFFE00
(1604611943.493065) can1 1CFE9200#FF8097FFFFFFFFFF
(1604611943.500073) can1 0CF00400#007D7D000000F07D
(1604611943.501070) can1 0CF00300#FAFE00FFFF0C00FF
(1604611943.502130) can1 18FFA800#FFFEFFFE04100FFB
(1604611943.503061) can1 18FEEF00#FEFFFFFEFFFFFF00
(1604611943.509074) can1 0CF00400#007D7D000000F07D
(1604611943.510140) can1 0CF00A00#00000000FFFFFFFF
(1604611943.511066) can1 18FEDF00#86FFFFFF7DFFFE00
(1604611943.520068) can1 0CF00400#007D7D000000F07D
(1604611943.521067) can1 18F00E00#A00FFE71FFFFFFFF
(1604611943.522140) can1 18FEDB00#FFFF0000FFFFFFFF
(1604611943.529079) can1 0CF00400#007D7D000000F07D
(1604611943.530116) can1 0CFEF100#FBFFFEAAAA001FFF
(1604611943.531065) can1 18FEDF00#86FFFFFF7DFFFE00
(1604611943.540073) can1 0CF00400#007D7D000000F07D
(1604611943.541065) can1 18FD9400#0000FFFFFFFFFFFF
(1604611943.542113) can1 18FEF600#FEFEFEFEFFFFFEFF
(1604611943.549089) can1 0CF00400#007D7D000000F07D
(1604611943.550124) can1 0CF00300#FAFE00FFFF0C00FF
(1604611943.551074) can1 18FCFD00#FFFFFFFF0000FFFF
(1604611943.552062) can1 18FEDF00#86FFFFFF7DFFFE00
(1604611943.560074) can1 0CF00400#007D7D000000F07D
(1604611943.561136) can1 0CF00A00#00000000FFFFFFFF
(1604611943.562112) can1 18F0000F#207D7DF3007DFE63
(1604611943.569083) can1 0CF00400#007D7D000000F07D
(1604611943.570132) can1 18F00E00#A00FFE71FFFFFFFF
(1604611943.571068) can1 18FEF200#0000FFFEBF05FEFF
(1604611943.572066) can1 18FEDF00#86FFFFFF7DFFFE00
(1604611943.580078) can1 0CF00400#007D7D000000F07D
(1604611943.581087) can1 10FDA300#FFFFFAFFFFFFFFFF
(1604611943.582123) can1 18FEE000#FFFFFFFF0F140A00
(1604611943.590136) can1 0CF00400#007D7D000000F07D
(1604611943.591057) can1 18FF4500#782AFA00FF0000AC
(1604611943.592065) can1 18FEDF00#86FFFFFF7DFFFE00
(1604611943.593066) can1 1CFE9200#FF8097FFFFFFFFFF
(1604611943.600076) can1 0CF00400#007D7D000000F07D
(1604611943.601072) can1 0CF00300#FAFE00FFFF0C00FF
(1604611943.602128) can1 18FEA400#FFFFFFFFFFFF204A
(1604611943.609080) can1 0CF00400#007D7D000000F07D
(1604611943.610133) can1 0CF00A00#00000000FFFFFFFF
(1604611943.611066) can1 18FEDF00#86FFFFFF7DFFFE00
(1604611943.620075) can1 0CF00400#007D7D000000F07D
(1604611943.621066) can1 18F00E00#A00FFE71FFFFFFFF
(1604611943.622130) can1 18FDD000#FFFFFFFF19FFFFFF
(1604611943.629070) can1 1CECFF00#20BE001CFFCAFE00
(1604611943.630133) can1 0CF00400#007D7D000000F07D
(1604611943.631059) can1 0CFEF100#FBFFFEAAAA001FFF
(1604611943.632063) can1 18FEDF00#86FFFFFF7DFFFE00
(1604611943.640075) can1 0CF00400#007D7D000000F07D
(1604611943.641078) can1 18FD9400#0000FFFFFFFFFFFF
(1604611943.642130) can1 18FEA600#0000FFFFFFFFFFFF
(1604611943.649075) can1 0CF00400#007D7D000000F07D
(1604611943.650124) can1 0CF00300#FAFE00FFFF0C00FF
(1604611943.651074) can1 18FCFD00#FFFFFFFF0000FFFF
(1604611943.652079) can1 18FEDF00#86FFFFFF7DFFFE00
(1604611943.660076) can1 0CF00400#007D7D000000F07D
(1604611943.661084) can1 0CF00A00#00000000FFFFFFFF
(1604611943.662127) can1 0CFD9200#F0FFFFFFFFC3FFFF
(1604611943.663051) can1 18F0000F#207D7DF3007DFE63
(1604611943.669075) can1 0CF00400#007D7D000000F07D
(1604611943.670130) can1 18F00E00#A00FFE71FFFFFFFF
(1604611943.671073) can1 18FEF200#0000FFFEBF05FEFF
(1604611943.672071) can1 18FF4600#FF000000FFFFFFFF
(1604611943.673070) can1 18FEDF00#86FFFFFF7DFFFE00
(1604611943.680075) can1 0CF00400#007D7D000000F07D
(1604611943.681080) can1 10FDA300#FFFFFAFFFFFFFFFF
(1604611943.682120) can1 18FEE000#FFFFFFFF0F140A00
(1604611943.689060) can1 1CEBFF00#0157FF9D000301FB
(1604611943.690139) can1 0CF00400#007D7D000000F07D
(1604611943.691069) can1 18FF4500#782AFA00FF0000AC
(1604611943.692065) can1 18FEDF00#86FFFFFF7DFFFE00
(1604611943.693068) can1 1CFE9200#FF8097FFFFFFFFFF
(1604611943.700079) can1 0CF00400#007D7D000000F07D
(1604611943.701079) can1 0CF00300#FAFE00FFFF0C00FF
(1604611943.702125) can1 18FFA800#FFFEFFFE04100FFB
(1604611943.709093) can1 0CF00400#007D7D000000F07D
(1604611943.710138) can1 0CF00A00#00000000FFFFFFFF
(1604611943.711067) can1 18FEDF00#86FFFFFF7DFFFE00
(1604611943.720077) can1 0CF00400#007D7D000000F07D
(1604611943.721067) can1 18F00E00#A00FFE71FFFFFFFF
(1604611943.722119) can1 18FE6900#FFFFFFFFFFFF201D
(1604611943.729077) can1 0CF00400#007D7D000000F07D
(1604611943.730120) can1 0CFEF100#FBFFFEAAAA001FFF
(1604611943.731067) can1 18FEDF00#86FFFFFF7DFFFE00
(1604611943.740076) can1 0CF00400#007D7D000000F07D
(1604611943.741075) can1 18FD9400#0000FFFFFFFFFFFF
(1604611943.742131) can1 18FEBD00#FFFF0000FFFFFFFF
(1604611943.749073) can1 1CEBFF00#02060B7E4A000E7E
(1604611943.750129) can1 0CF00400#007D7D000000F07D
(1604611943.751064) can1 0CF00300#FAFE00FFFF0C00FF
(1604611943.752071) can1 18FCFD00#FFFFFFFF0000FFFF
(1604611943.753067) can1 18FEDF00#86FFFFFF7DFFFE00
(1604611943.760077) can1 0CF00400#007D7D000000F07D
(1604611943.761084) can1 0CF00A00#00000000FFFFFFFF
(1604611943.762116) can1 18F0000F#207D7DF3007DFE63
(1604611943.769088) can1 0CF00400#007D7D000000F07D
(1604611943.770132) can1 18F00E00#A00FFE71FFFFFFFF
(1604611943.771068) can1 18FEF200#0000FFFEBF05FEFF
(1604611943.772064) can1 18FEDF00#86FFFFFF7DFFFE00
(1604611943.780076) can1 0CF00400#007D7D000000F07D
(1604611943.781081) can1 10FDA300#FFFFFAFFFFFFFFFF
(1604611943.782124) can1 18FEE000#FFFFFFFF0F140A00
(1604611943.790139) can1 0CF00400#007D7D000000F07D
(1604611943.791089) can1 18FF4500#782AFA00FF0000AC
(1604611943.792065) can1 18FEDF00#86FFFFFF7DFFFE00
(1604611943.793069) can1 1CFE9200#FF8097FFFFFFFFFF
(1604611943.800078) can1 0CF00400#007D7D000000F07D
(1604611943.801078) can1 0CF00300#FAFE00FFFF0C00FF
(1604611943.802117) can1 18FEE400#A07FFDFCF0FFFFFF
(1604611943.809069) can1 1CEBFF00#03E1060E7E660004
(1604611943.810130) can1 0CF00400#007D7D000000F07D
(1604611943.811076) can1 0CF00A00#00000000FFFFFFFF
(1604611943.812063) can1 18FEDF00#86FFFFFF7DFFFE00
(1604611943.820076) can1 0CF00400#007D7D000000F07D
(1604611943.821067) can1 18F00E00#A00FFE71FFFFFFFF
(1604611943.822128) can1 18FEDD00#FF0000FFFFFFFFFF
(1604611943.830138) can1 0CF00400#007D7D000000F07D
(1604611943.831061) can1 0CFEF100#FBFFFEAAAA001FFF
(1604611943.832064) can1 18FEDF00#86FFFFFF7DFFFE00
(1604611943.840076) can1 0CF00400#007D7D000000F07D
(1604611943.841075) can1 18FD9400#0000FFFFFFFFFFFF
(1604611943.842128) can1 18FE9A00#2027FFFFFFFFFFFF
(1604611943.849077) can1 0CF00400#007D7D000000F07D
(1604611943.850126) can1 0CF00300#FAFE00FFFF0C00FF
(1604611943.851077) can1 18FCFD00#FFFFFFFF0000FFFF
(1604611943.852064) can1 18FEDF00#86FFFFFF7DFFFE00
(1604611943.860078) can1 0CF00400#007D7D000000F07D
(1604611943.861084) can1 0CF00A00#00000000FFFFFFFF
(1604611943.862112) can1 18F0000F#207D7DF3007DFE63
(1604611943.863060) can1 18FE9900#73A7FFFFFFFFFFFF
(1604611943.869061) can1 1CEBFF00#040151000401B904
(1604611943.870136) can1 0CF00400#007D7D000000F07D
(1604611943.871065) can1 18F00E00#A00FFE71FFFFFFFF
(1604611943.872065) can1 18FEF200#0000FFFEBF05FEFF
(1604611943.873064) can1 18FEDF00#86FFFFFF7DFFFE00
(1604611943.880078) can1 0CF00400#007D7D000000F07D
(1604611943.881082) can1 10FDA300#FFFFFAFFFFFFFFFF
(1604611943.882126) can1 18FEE000#FFFFFFFF0F140A00
(1604611943.883068) can1 18FE9800#0032FFFFFFFFFFFF
(1604611943.890138) can1 0CF00400#007D7D000000F07D
(1604611943.891067) can1 18FF4500#782AFA00FF0000AC
(1604611943.892069) can1 18FEDF00#86FFFFFF7DFFFE00
(1604611943.893068) can1 1CFE9200#FF8097FFFFFFFFFF
(1604611943.900076) can1 0CF00400#007D7D000000F07D
(1604611943.901074) can1 0CF00300#FAFE00FFFF0C00FF
(1604611943.902132) can1 18FFA800#FFFEFFFE04100FFB
(1604611943.903073) can1 18FE9700#0032FFFFFFFFFFFF
(1604611943.909097) can1 0CF00400#007D7D000000F07D
(1604611943.910141) can1 0CF00A00#00000000FFFFFFFF
(1604611943.911070) can1 0CFD9200#F0FFFFFFFFC3FFFF
(1604611943.912065) can1 18FEDF00#86FFFFFF7DFFFE00
(1604611943.920078) can1 0CF00400#007D7D000000F07D
(1604611943.921073) can1 18F00E00#A00FFE71FFFFFFFF
(1604611943.922141) can1 18FF4600#FF000000FFFFFFFF
(1604611943.923077) can1 18FDD300#FFFEFFFFFFFFFFFF
(1604611943.929074) can1 1CEBFF00#0504016900030146
(1604611943.930134) can1 0CF00400#007D7D000000F07D
(1604611943.931063) can1 0CFEF100#FBFFFEAAAA001FFF
(1604611943.932065) can1 18FEDF00#86FFFFFF7DFFFE00
(1604611943.933061) can1 18FEC100#81F5FB0081F5FB00
(1604611943.940079) can1 0CF00400#007D7D000000F07D
(1604611943.941082) can1 18FD9400#0000FFFFFFFFFFFF
(1604611943.942137) can1 18FD8C00#FFFEFFFFFFFFFFFF
(1604611943.943065) can1 18FEF700#FFFFFFFFEA00FFFF
(1604611943.949073) can1 0CF00400#007D7D000000F07D
(1604611943.950132) can1 0CF00300#FAFE00FFFF0C00FF
(1604611943.951083) can1 18FCFD00#FFFFFFFF0000FFFF
(1604611943.952070) can1 18FEDF00#86FFFFFF7DFFFE00
(1604611943.960077) can1 0CF00400#007D7D000000F07D
(1604611943.961090) can1 0CF00A00#00000000FFFFFFFF
(1604611943.962117) can1 18F0000F#207D7DF3007DFE63
(1604611943.963066) can1 18FF4A00#6F00C0FFFFFFFFFF
(1604611943.969082) can1 0CF00400#007D7D000000F07D
(1604611943.970132) can1 18F00E00#A00FFE71FFFFFFFF
(1604611943.971069) can1 18FEF200#0000FFFEBF05FEFF
(1604611943.972064) can1 18FEDF00#86FFFFFF7DFFFE00
(1604611943.980077) can1 0CF00400#007D7D000000F07D
(1604611943.981082) can1 10FDA300#FFFFFAFFFFFFFFFF
(1604611943.982121) can1 18FEE000#FFFFFFFF0F140A00
(1604611943.983050) can1 18FD0900#FFFFFFFF0C78B601
(1604611943.989064) can1 1CEBFF00#060A0301AB000301
(1604611943.990136) can1 0CF00400#007D7D000000F07D
(1604611943.991067) can1 18FF4500#782AFA00FF0000AC
(1604611943.992065) can1 18FEDF00#86FFFFFF7DFFFE00
(1604611943.993073) can1 1CFE9200#FF8097FFFFFFFFFF
(1604611944.000078) can1 0CF00400#007D7D000000F07D
(1604611944.001075) can1 0CF00300#FAFE00FFFF0C00FF
(1604611944.002129) can1 18FEEF00#FEFFFFFEFFFFFF00
(1604611944.003073) can1 18FF4800#0000F3FF00000000
(1604611944.009098) can1 0CF00400#007D7D000000F07D
(1604611944.010137) can1 0CF00A00#00000000FFFFFFFF
(1604611944.011072) can1 18FEDF00#86FFFFFF7DFFFE00
(1604611944.020079) can1 0CF00400#007D7D000000F07D
(1604611944.021068) can1 18F00E00#A00FFE71FFFFFFFF
(1604611944.022143) can1 18FEDB00#FFFF0000FFFFFFFF
(1604611944.030139) can1 0CF00400#007D7D000000F07D
(1604611944.031062) can1 0CFEF100#FBFFFEAAAA001FFF
(1604611944.032066) can1 18FEDF00#86FFFFFF7DFFFE00
(1604611944.040071) can1 0CF00400#007D7D000000F07D
(1604611944.041079) can1 18FD9400#0000FFFFFFFFFFFF
(1604611944.042125) can1 18FEF600#FEFEFEFEFFFFFEFF
(1604611944.049073) can1 1CEBFF00#07CF040201D30402
(1604611944.050133) can1 0CF00400#007D7D000000F07D
(1604611944.051065) can1 0CF00300#FAFE00FFFF0C00FF
(1604611944.052074) can1 18FCFD00#FFFFFFFF0000FFFF
(1604611944.053070) can1 18FEDF00#86FFFFFF7DFFFE00
(1604611944.060079) can1 0CF00400#007D7D000000F07D
(1604611944.061089) can1 0CF00A00#00000000FFFFFFFF
(1604611944.062118) can1 18F0000F#207D7DF3007DFE63
(1604611944.069078) can1 0CF00400#007D7D000000F07D
(1604611944.070133) can1 18F00E00#A00FFE71FFFFFFFF
(1604611944.071070) can1 18FEF200#0000FFFEBF05FEFF
(1604611944.072066) can1 18FEDF00#86FFFFFF7DFFFE00
(1604611944.080078) can1 0CF00400#007D7D000000F07D
(1604611944.081085) can1 10FDA300#FFFFFAFFFFFFFFFF
(1604611944.082121) can1 18FEE000#FFFFFFFF0F140A00
(1604611944.089082) can1 0CF00400#007D7D000000F07D
(1604611944.090129) can1 18FF4500#782AFA00FF0000AC
(1604611944.091070) can1 18FEDF00#86FFFFFF7DFFFE00
(1604611944.092066) can1 1CFE9200#FF8097FFFFFFFFFF
(1604611944.100077) can1 0CF00400#007D7D000000F07D
(1604611944.101074) can1 0CF00300#FAFE00FFFF0C00FF
(1604611944.102134) can1 18FFA800#FFFEFFFE04100FFB
(1604611944.109079) can1 1CEBFF00#0801840602016E00
(1604611944.110152) can1 0CF00400#007D7D000000F07D
(1604611944.111079) can1 0CF00A00#00000000FFFFFFFF
(1604611944.112067) can1 18FEDF00#86FFFFFF7DFFFE00
(1604611944.120078) can1 0CF00400#007D7D000000F07D
(1604611944.121074) can1 18F00E00#A00FFE71FFFFFFFF
(1604611944.122135) can1 18FDD000#FFFFFFFF19FFFFFF
(1604611944.129079) can1 0CF00400#007D7D000000F07D
(1604611944.130124) can1 0CFEF100#FBFFFEAAAA001FFF
(1604611944.131071) can1 18FEDF00#86FFFFFF7DFFFE00
(1604611944.140078) can1 0CF00400#007D7D000000F07D
(1604611944.141086) can1 18FD9400#0000FFFFFFFFFFFF
(1604611944.142141) can1 18FEA600#0000FFFFFFFFFFFF
(1604611944.149086) can1 0CF00400#007D7D000000F07D
(1604611944.150129) can1 0CF00300#FAFE00FFFF0C00FF
(1604611944.151079) can1 18FCFD00#FFFFFFFF0000FFFF
(1604611944.152066) can1 18FEDF00#86FFFFFF7DFFFE00
(1604611944.160080) can1 0CF00400#007D7D000000F07D
(1604611944.161086) can1 0CF00A00#00000000FFFFFFFF
(1604611944.162131) can1 0CFD9200#F0FFFFFFFFC3FFFF
(1604611944.163054) can1 18F0000F#207D7DF3007DFE63
(1604611944.169062) can1 1CEBFF00#0903015E000401AE
(1604611944.170137) can1 0CF00400#007D7D000000F07D
(1604611944.171067) can1 18F00E00#A00FFE71FFFFFFFF
(1604611944.172067) can1 18FEF200#0000FFFEBF05FEFF
(1604611944.173074) can1 18FF4600#FF000000FFFFFFFF
(1604611944.174127) can1 18FEDF00#86FFFFFF7DFFFE00
(1604611944.180078) can1 0CF00400#007D7D000000F07D
(1604611944.181082) can1 10FDA300#FFFFFAFFFFFFFFFF
(1604611944.182126) can1 18FEE000#FFFFFFFF0F140A00
(1604611944.190140) can1 0CF00400#007D7D000000F07D
(1604611944.191062) can1 18FF4500#782AFA00FF0000AC
(1604611944.192066) can1 18FEDF00#86FFFFFF7DFFFE00
(1604611944.193070) can1 1CFE9200#FF8097FFFFFFFFFF
(1604611944.200079) can1 0CF00400#007D7D000000F07D
(1604611944.201075) can1 0CF00300#FAFE00FFFF0C00FF
(1604611944.202113) can1 18FFA600#F0FFFEA7FAFA8A01
(1604611944.209091) can1 0CF00400#007D7D000000F07D
(1604611944.210139) can1 0CF00A00#00000000FFFFFFFF
(1604611944.211072) can1 18FEDF00#86FFFFFF7DFFFE00
(1604611944.220080) can1 0CF00400#007D7D000000F07D
(1604611944.221075) can1 18F00E00#A00FFE71FFFFFFFF
(1604611944.222131) can1 18FEF500#A9FFFFFFFEFFFFFF
(1604611944.229066) can1 1CEBFF00#0A000301F5131301
(1604611944.230138) can1 0CF00400#007D7D000000F07D
(1604611944.231083) can1 0CFEF100#FBFFFEAAAA001FFF
(1604611944.232070) can1 18FEDF00#86FFFFFF7DFFFE00
(1604611944.240081) can1 0CF00400#007D7D000000F07D
(1604611944.241080) can1 18FD9400#0000FFFFFFFFFFFF
(1604611944.242119) can1 18FE5600#FE3CFFFF9FBF00FF
(1604611944.249091) can1 0CF00400#007D7D000000F07D
(1604611944.250135) can1 0CF00300#FAFE00FFFF0C00FF
(1604611944.251079) can1 18FCFD00#FFFFFFFF0000FFFF
(1604611944.252071) can1 18FEDF00#86FFFFFF7DFFFE00
(1604611944.260079) can1 0CF00400#007D7D000000F07D
(1604611944.261080) can1 0CF00A00#00000000FFFFFFFF
(1604611944.262119) can1 18F0000F#207D7DF3007DFE63
(1604611944.269088) can1 0CF00400#007D7D000000F07D
(1604611944.270131) can1 18F00E00#A00FFE71FFFFFFFF
(1604611944.271071) can1 18FEF200#0000FFFEBF05FEFF
(1604611944.272067) can1 18FEDF00#86FFFFFF7DFFFE00
(1604611944.280080) can1 0CF00400#007D7D000000F07D
(1604611944.281090) can1 10FDA300#FFFFFAFFFFFFFFFF
(1604611944.282123) can1 18FEE000#FFFFFFFF0F140A00
(1604611944.289055) can1 1CEBFF00#0B910C1301610209
(1604611944.290138) can1 0CF00400#007D7D000000F07D
(1604611944.291064) can1 18FF4500#782AFA00FF0000AC
(1604611944.292067) can1 18FEDF00#86FFFFFF7DFFFE00
(1604611944.293067) can1 1CFE9200#FF8097FFFFFFFFFF
(1604611944.300079) can1 0CF00400#007D7D000000F07D
(1604611944.301076) can1 0CF00300#FAFE00FFFF0C00FF
(1604611944.302136) can1 18FFA800#FFFEFFFE04100FFB
(1604611944.309077) can1 0CF00400#007D7D000000F07D
(1604611944.310146) can1 0CF00A00#00000000FFFFFFFF
(1604611944.311072) can1 18FEDF00#86FFFFFF7DFFFE00
(1604611944.320081) can1 0CF00400#007D7D000000F07D
(1604611944.321072) can1 18F00E00#A00FFE71FFFFFFFF
(1604611944.322141) can1 18FD0700#57FFFFFFFFFFFFFF
(1604611944.329082) can1 0CF00400#007D7D000000F07D
(1604611944.330124) can1 0CFEF100#FBFFFEAAAA001FFF
(1604611944.331071) can1 18FEDF00#86FFFFFF7DFFFE00
(1604611944.340080) can1 0CF00400#007D7D000000F07D
(1604611944.341080) can1 18FD9400#0000FFFFFFFFFFFF
(1604611944.342136) can1 18FD7C00#FFFFFBFFFFFFFFFF
(1604611944.349089) can1 1CEBFF00#0C017F0209018406
(1604611944.350133) can1 0CF00400#007D7D000000F07D
(1604611944.351067) can1 0CF00300#FAFE00FFFF0C00FF
(1604611944.352076) can1 18FCFD00#FFFFFFFF0000FFFF
(1604611944.353068) can1 18FEDF00#86FFFFFF7DFFFE00
(1604611944.360080) can1 0CF00400#007D7D000000F07D
(1604611944.361088) can1 0CF00A00#00000000FFFFFFFF
(1604611944.362128) can1 18F0000F#207D7DF3007DFE63
(1604611944.369096) can1 0CF00400#007D7D000000F07D
(1604611944.370135) can1 18F00E00#A00FFE71FFFFFFFF
(1604611944.371075) can1 18FEF200#0000FFFEBF05FEFF
(1604611944.372069) can1 18FEDF00#86FFFFFF7DFFFE00
(1604611944.380084) can1 0CF00400#007D7D000000F07D
(1604611944.381090) can1 10FDA300#FFFFFAFFFFFFFFFF
(1604611944.382126) can1 18FEE000#FFFFFFFF0F140A00
(1604611944.390144) can1 0CF00400#007D7D000000F07D
(1604611944.391064) can1 18FF4500#782AFA00FF0000AC
(1604611944.392071) can1 18FEDF00#86FFFFFF7DFFFE00
(1604611944.393072) can1 1CFE9200#FF8097FFFFFFFFFF
(1604611944.400081) can1 0CF00400#007D7D000000F07D
(1604611944.401068) can1 0CF00300#FAFE00FFFF0C00FF
(1604611944.402136) can1 18FEEE00#FEFEFFFEFFFFFFFF
(1604611944.409073) can1 1CEBFF00#0D090184060901F8
(1604611944.410130) can1 0CF00400#007D7D000000F07D
(1604611944.411080) can1 0CF00A00#00000000FFFFFFFF
(1604611944.412069) can1 0CFD9200#F0FFFFFFFFC3FFFF
(1604611944.413073) can1 18FEDF00#86FFFFFF7DFFFE00
(1604611944.420083) can1 0CF00400#007D7D000000F07D
(1604611944.421078) can1 18F00E00#A00FFE71FFFFFFFF
(1604611944.422133) can1 18FF4600#FF000000FFFFFFFF
(1604611944.430143) can1 0CF00400#007D7D000000F07D
(1604611944.431064) can1 0CFEF100#FBFFFEAAAA001FFF
(1604611944.432069) can1 18FEDF00#86FFFFFF7DFFFE00
(1604611944.440082) can1 0CF00400#007D7D000000F07D
(1604611944.441091) can1 18FD9400#0000FFFFFFFFFFFF
(1604611944.442142) can1 18FD8C00#FFFEFFFFFFFFFFFF
(1604611944.449078) can1 0CF00400#007D7D000000F07D
(1604611944.450131) can1 0CF00300#FAFE00FFFF0C00FF
(1604611944.451087) can1 18FCFD00#FFFFFFFF0000FFFF
(1604611944.452069) can1 18FEDF00#86FFFFFF7DFFFE00
(1604611944.460081) can1 0CF00400#007D7D000000F07D
(1604611944.461082) can1 0CF00A00#00000000FFFFFFFF
(1604611944.462117) can1 18F0000F#207D7DF3007DFE63
(1604611944.469060) can1 1CEBFF00#0E13090184060901
(1604611944.470152) can1 0CF00400#007D7D000000F07D
(1604611944.471071) can1 18F00E00#A00FFE71FFFFFFFF
(1604611944.472069) can1 18FEF200#0000FFFEBF05FEFF
(1604611944.473077) can1 18FEDF00#86FFFFFF7DFFFE00
(1604611944.480082) can1 0CF00400#007D7D000000F07D
(1604611944.481084) can1 10FDA300#FFFFFAFFFFFFFFFF
(1604611944.482125) can1 18FEE000#FFFFFFFF0F140A00
(1604611944.490141) can1 0CF00400#007D7D000000F07D
(1604611944.491067) can1 18FF4500#782AFA00FF0000AC
(1604611944.492073) can1 18FEDF00#86FFFFFF7DFFFE00
(1604611944.493073) can1 1CFE9200#FF8097FFFFFFFFFF
(1604611944.500087) can1 0CF00400#007D7D000000F07D
(1604611944.501079) can1 0CF00300#FAFE00FFFF0C00FF
(1604611944.502135) can1 18FFA800#FFFEFFFE04100FFB
(1604611944.503070) can1 18FEEF00#FEFFFFFEFFFFFF00
(1604611944.509096) can1 0CF00400#007D7D000000F07D
(1604611944.510145) can1 0CF00A00#00000000FFFFFFFF
(1604611944.511078) can1 18FEDF00#86FFFFFF7DFFFE00
(1604611944.520082) can1 0CF00400#007D7D000000F07D
(1604611944.521073) can1 18F00E00#A00FFE71FFFFFFFF
(1604611944.522145) can1 18FEDB00#FFFF0000FFFFFFFF
(1604611944.529080) can1 1CEBFF00#0F84060901840609
(1604611944.530135) can1 0CF00400#007D7D000000F07D
(1604611944.531065) can1 0CFEF100#FBFFFEAAAA001FFF
(1604611944.532069) can1 18FEDF00#86FFFFFF7DFFFE00
(1604611944.540082) can1 0CF00400#007D7D000000F07D
(1604611944.541087) can1 18FD9400#0000FFFFFFFFFFFF
(1604611944.542125) can1 18FEF600#FEFEFEFEFFFFFEFF
(1604611944.549083) can1 0CF00400#007D7D000000F07D
(1604611944.550131) can1 0CF00300#FAFE00FFFF0C00FF
(1604611944.551082) can1 18FCFD00#FFFFFFFF0000FFFF
(1604611944.552070) can1 18FEDF00#86FFFFFF7DFFFE00
(1604611944.560082) can1 0CF00400#007D7D000000F07D
(1604611944.561090) can1 0CF00A00#00000000FFFFFFFF
(1604611944.562122) can1 18F0000F#207D7DF3007DFE63
(1604611944.569089) can1 0CF00400#007D7D000000F07D
(1604611944.570146) can1 18F00E00#A00FFE71FFFFFFFF
(1604611944.571077) can1 18FEF200#0000FFFEBF05FEFF
(1604611944.572072) can1 18FEDF00#86FFFFFF7DFFFE00
(1604611944.580099) can1 0CF00400#007D7D000000F07D
(1604611944.581102) can1 10FDA300#FFFFFAFFFFFFFFFF
(1604611944.582135) can1 18FEE000#FFFFFFFF0F140A00
(1604611944.589070) can1 1CEBFF00#100184060901FD13
(1604611944.590155) can1 0CF00400#007D7D000000F07D
(1604611944.591077) can1 18FF4500#782AFA00FF0000AC
(1604611944.592076) can1 18FEDF00#86FFFFFF7DFFFE00
(1604611944.593070) can1 1CFE9200#FF8097FFFFFFFFFF
(1604611944.600089) can1 0CF00400#007D7D000000F07D
(1604611944.601087) can1 0CF00300#FAFE00FFFF0C00FF
(1604611944.602138) can1 18FEA400#FFFFFFFFFFFF204A
(1604611944.609086) can1 0CF00400#007D7D000000F07D
(1604611944.610145) can1 0CF00A00#00000000FFFFFFFF
(1604611944.611074) can1 18FEDF00#86FFFFFF7DFFFE00
(1604611944.620083) can1 0CF00400#007D7D000000F07D
(1604611944.621075) can1 18F00E00#A00FFE71FFFFFFFF
(1604611944.622138) can1 18FDD000#FFFFFFFF19FFFFFF
(1604611944.629084) can1 0CF00400#007D7D000000F07D
(1604611944.630129) can1 0CFEF100#FBFFFEAAAA001FFF
(1604611944.631075) can1 18FEDF00#86FFFFFF7DFFFE00
(1604611944.640083) can1 0CF00400#007D7D000000F07D
(1604611944.641081) can1 18FD9400#0000FFFFFFFFFFFF
(1604611944.642138) can1 18FEA600#0000FFFFFFFFFFFF
(1604611944.649063) can1 1CEBFF00#1109018406090184
(1604611944.650143) can1 0CF00400#007D7D000000F07D
(1604611944.651074) can1 0CF00300#FAFE00FFFF0C00FF
(1604611944.652078) can1 18FCFD00#FFFFFFFF0000FFFF
(1604611944.653074) can1 18FEDF00#86FFFFFF7DFFFE00
(1604611944.660083) can1 0CF00400#007D7D000000F07D
(1604611944.661091) can1 0CF00A00#00000000FFFFFFFF
(1604611944.662134) can1 0CFD9200#F0FFFFFFFFC3FFFF
(1604611944.663059) can1 18F0000F#207D7DF3007DFE63
(1604611944.669092) can1 0CF00400#007D7D000000F07D
(1604611944.670138) can1 18F00E00#A00FFE71FFFFFFFF
(1604611944.671080) can1 18FEF200#0000FFFEBF05FEFF
(1604611944.672074) can1 18FF4600#FF000000FFFFFFFF
(1604611944.673072) can1 18FEDF00#86FFFFFF7DFFFE00
(1604611944.680084) can1 0CF00400#007D7D000000F07D
(1604611944.681089) can1 10FDA300#FFFFFAFFFFFFFFFF
(1604611944.682133) can1 18FEE000#FFFFFFFF0F140A00
(1604611944.690167) can1 0CF00400#007D7D000000F07D
(1604611944.691069) can1 18FF4500#782AFA00FF0000AC
(1604611944.692072) can1 18FEDF00#86FFFFFF7DFFFE00
(1604611944.693074) can1 1CFE9200#FF8097FFFFFFFFFF
(1604611944.700083) can1 0CF00400#007D7D000000F07D
(1604611944.701084) can1 0CF00300#FAFE00FFFF0C00FF
(1604611944.702135) can1 18FFA800#FFFEFFFE04100FFB
(1604611944.709071) can1 1CEBFF00#1206090184060901
(1604611944.710143) can1 0CF00400#007D7D000000F07D
(1604611944.711083) can1 0CF00A00#00000000FFFFFFFF
(1604611944.712074) can1 18FEDF00#86FFFFFF7DFFFE00
(1604611944.720084) can1 0CF00400#007D7D000000F07D
(1604611944.721075) can1 18F00E00#A00FFE71FFFFFFFF
(1604611944.722131) can1 18FE6900#FFFFFFFFFFFF201D
(1604611944.729089) can1 0CF00400#007D7D000000F07D
(1604611944.730129) can1 0CFEF100#FBFFFEAAAA001FFF
(1604611944.731075) can1 18FEDF00#86FFFFFF7DFFFE00
(1604611944.740084) can1 0CF00400#007D7D000000F07D
(1604611944.741083) can1 18FD9400#0000FFFFFFFFFFFF
(1604611944.742139) can1 18FEBD00#FFFF0000FFFFFFFF
(1604611944.749085) can1 0CF00400#007D7D000000F07D
(1604611944.750131) can1 0CF00300#FAFE00FFFF0C00FF
(1604611944.751085) can1 18FCFD00#FFFFFFFF0000FFFF
(1604611944.752073) can1 18FEDF00#86FFFFFF7DFFFE00
(1604611944.760085) can1 0CF00400#007D7D000000F07D
(1604611944.761092) can1 0CF00A00#00000000FFFFFFFF
(1604611944.762123) can1 18F0000F#207D7DF3007DFE63
(1604611944.769067) can1 1CEBFF00#13D4040901840609
(1604611944.770138) can1 0CF00400#007D7D000000F07D
(1604611944.771071) can1 18F00E00#A00FFE71FFFFFFFF
(1604611944.772071) can1 18FEF200#0000FFFEBF05FEFF
(1604611944.773076) can1 18FEDF00#86FFFFFF7DFFFE00
(1604611944.780085) can1 0CF00400#007D7D000000F07D
(1604611944.781085) can1 10FDA300#FFFFFAFFFFFFFFFF
(1604611944.782131) can1 18FEE000#FFFFFFFF0F140A00
(1604611944.790145) can1 0CF00400#007D7D000000F07D
(1604611944.791074) can1 18FF4500#782AFA00FF0000AC
(1604611944.792076) can1 18FEDF00#86FFFFFF7DFFFE00
(1604611944.793079) can1 1CFE9200#FF8097FFFFFFFFFF
(1604611944.800134) can1 0CF00400#007D7D000000F07D
(1604611944.801081) can1 0CF00300#FAFE00FFFF0C00FF
(1604611944.802124) can1 18FEE400#A07FFDFCF0FFFFFF
(1604611944.809107) can1 0CF00400#007D7D000000F07D
(1604611944.810140) can1 0CF00A00#00000000FFFFFFFF
(1604611944.811077) can1 18FEDF00#86FFFFFF7DFFFE00
(1604611944.820098) can1 0CF00400#007D7D000000F07D
(1604611944.821078) can1 18F00E00#A00FFE71FFFFFFFF
(1604611944.822135) can1 18FEDD00#FF0000FFFFFFFFFF
(1604611944.829081) can1 1CEBFF00#140184060901AF00
(1604611944.830144) can1 0CF00400#007D7D000000F07D
(1604611944.831068) can1 0CFEF100#FBFFFEAAAA001FFF
(1604611944.832073) can1 18FEDF00#86FFFFFF7DFFFE00
(1604611944.840085) can1 0CF00400#007D7D000000F07D
(1604611944.841075) can1 18FD9400#0000FFFFFFFFFFFF
(1604611944.842140) can1 18FE9A00#2027FFFFFFFFFFFF
(1604611944.849089) can1 0CF00400#007D7D000000F07D
(1604611944.850133) can1 0CF00300#FAFE00FFFF0C00FF
(1604611944.851083) can1 18FCFD00#FFFFFFFF0000FFFF
(1604611944.852076) can1 18FEDF00#86FFFFFF7DFFFE00
(1604611944.860085) can1 0CF00400#007D7D000000F07D
(1604611944.861099) can1 0CF00A00#00000000FFFFFFFF
(1604611944.862125) can1 18F0000F#207D7DF3007DFE63
(1604611944.863068) can1 18FE9900#73A7FFFFFFFFFFFF
(1604611944.869089) can1 0CF00400#007D7D000000F07D
(1604611944.870140) can1 18F00E00#A00FFE71FFFFFFFF
(1604611944.871076) can1 18FEF200#0000FFFEBF05FEFF
(1604611944.872073) can1 18FEDF00#86FFFFFF7DFFFE00
(1604611944.880084) can1 0CF00400#007D7D000000F07D
(1604611944.881089) can1 10FDA300#FFFFFAFFFFFFFFFF
(1604611944.882128) can1 18FEE000#FFFFFFFF0F140A00
(1604611944.883077) can1 18FE9800#0032FFFFFFFFFFFF
(1604611944.889072) can1 1CEBFF00#1503019C0103019B
(1604611944.890144) can1 0CF00400#007D7D000000F07D
(1604611944.891074) can1 18FF4500#782AFA00FF0000AC
(1604611944.892076) can1 18FEDF00#86FFFFFF7DFFFE00
(1604611944.893080) can1 1CFE9200#FF8097FFFFFFFFFF
(1604611944.900085) can1 0CF00400#007D7D000000F07D
(1604611944.901081) can1 0CF00300#FAFE00FFFF0C00FF
(1604611944.902140) can1 18FFA800#FFFEFFFE04100FFB
(1604611944.903080) can1 18FE9700#0032FFFFFFFFFFFF
(1604611944.909085) can1 0CF00400#007D7D000000F07D
(1604611944.910151) can1 0CF00A00#00000000FFFFFFFF
(1604611944.911076) can1 0CFD9200#F0FFFFFFFFC3FFFF
(1604611944.912076) can1 18FEDF00#86FFFFFF7DFFFE00
(1604611944.920085) can1 0CF00400#007D7D000000F07D
(1604611944.921100) can1 18F00E00#A00FFE71FFFFFFFF
(1604611944.922138) can1 18FF4600#FF000000FFFFFFFF
(1604611944.923083) can1 18FDD300#FFFEFFFFFFFFFFFF
(1604611944.930149) can1 0CF00400#007D7D000000F07D
(1604611944.931070) can1 0CFEF100#FBFFFEAAAA001FFF
(1604611944.932073) can1 18FEDF00#86FFFFFF7DFFFE00
(1604611944.933069) can1 18FEC100#81F5FB0081F5FB00
(1604611944.940085) can1 0CF00400#007D7D000000F07D
(1604611944.941090) can1 18FD9400#0000FFFFFFFFFFFF
(1604611944.942148) can1 18FD8C00#FFFEFFFFFFFFFFFF
(1604611944.943073) can1 18FEF700#FFFFFFFFEA00FFFF
(1604611944.949064) can1 1CEBFF00#1601040189031301
(1604611944.950145) can1 0CF00400#007D7D000000F07D
(1604611944.951078) can1 0CF00300#FAFE00FFFF0C00FF
(1604611944.952084) can1 18FCFD00#FFFFFFFF0000FFFF
(1604611944.953081) can1 18FEDF00#86FFFFFF7DFFFE00
(1604611944.960086) can1 0CF00400#007D7D000000F07D
(1604611944.961093) can1 0CF00A00#00000000FFFFFFFF
(1604611944.962121) can1 18F0000F#207D7DF3007DFE63
(1604611944.963073) can1 18FF4A00#6F00C0FFFFFFFFFF
(1604611944.969086) can1 0CF00400#007D7D000000F07D
(1604611944.970140) can1 18F00E00#A00FFE71FFFFFFFF
(1604611944.971081) can1 18FEF200#0000FFFEBF05FEFF
(1604611944.972077) can1 18FEDF00#86FFFFFF7DFFFE00
(1604611944.980086) can1 0CF00400#007D7D000000F07D
(1604611944.981091) can1 10FDA300#FFFFFAFFFFFFFFFF
(1604611944.982133) can1 18FEE000#FFFFFFFF0F140A00
(1604611944.983056) can1 18FD0900#FFFFFFFF0C78B601
(1604611944.990146) can1 0CF00400#007D7D000000F07D
(1604611944.991069) can1 18FF4500#782AFA00FF0000AC
(1604611944.992077) can1 18FEDF00#86FFFFFF7DFFFE00
(1604611944.993078) can1 1CFE9200#FF8097FFFFFFFFFF
(1604611945.000085) can1 0CF00400#007D7D000000F07D
(1604611945.001082) can1 0CF00300#FAFE00FFFF0C00FF
(1604611945.002140) can1 18FEEF00#FEFFFFFEFFFFFF00
(1604611945.003081) can1 18FF4800#0000F3FF00000000
(1604611945.009057) can1 1CEBFF00#178A0313018B0313
(1604611945.010142) can1 0CF00400#007D7D000000F07D
(1604611945.011085) can1 0CF00A00#00000000FFFFFFFF
(1604611945.012076) can1 18FEDF00#86FFFFFF7DFFFE00
(1604611945.020100) can1 0CF00400#007D7D000000F07D
(1604611945.021090) can1 18F00E00#A00FFE71FFFFFFFF
(1604611945.022147) can1 18FEDB00#FFFF0000FFFFFFFF
(1604611945.029070) can1 1CECFF0F#20130003FFE1FE00
(1604611945.030146) can1 0CF00400#007D7D000000F07D
(1604611945.031071) can1 0CFEF100#FBFFFEAAAA001FFF
(1604611945.032075) can1 18FEDF00#86FFFFFF7DFFFE00
(1604611945.040088) can1 0CF00400#007D7D000000F07D
(1604611945.041086) can1 18FD9400#0000FFFFFFFFFFFF
(1604611945.042129) can1 18FEF600#FEFEFEFEFFFFFEFF
(1604611945.049091) can1 0CF00400#007D7D000000F07D
(1604611945.050132) can1 0CF00300#FAFE00FFFF0C00FF
(1604611945.051085) can1 18FCFD00#FFFFFFFF0000FFFF
(1604611945.052075) can1 18FEDF00#86FFFFFF7DFFFE00
(1604611945.060087) can1 0CF00400#007D7D000000F07D
(1604611945.061095) can1 0CF00A00#00000000FFFFFFFF
(1604611945.062126) can1 18F0000F#207D7DF3007DFE63
(1604611945.069069) can1 1CEBFF00#18018C0313018406
(1604611945.070143) can1 0CF00400#007D7D000000F07D
(1604611945.071074) can1 18F00E00#A00FFE71FFFFFFFF
(1604611945.072074) can1 18FEF200#0000FFFEBF05FEFF
(1604611945.073074) can1 18FEDF00#86FFFFFF7DFFFE00
(1604611945.080087) can1 0CF00400#007D7D000000F07D
(1604611945.081096) can1 10FDA300#FFFFFAFFFFFFFFFF
(1604611945.082133) can1 18FEE000#FFFFFFFF0F140A00
(1604611945.089069) can1 1CEBFF0F#01FF0FC01263E047
(1604611945.090145) can1 0CF00400#007D7D000000F07D
(1604611945.091077) can1 18FF4500#782AFA00FF0000AC
(1604611945.092074) can1 18FEDF00#86FFFFFF7DFFFE00
(1604611945.093074) can1 1CFE9200#FF8097FFFFFFFFFF
(1604611945.100087) can1 0CF00400#007D7D000000F07D
(1604611945.101083) can1 0CF00300#FAFE00FFFF0C00FF
(1604611945.102139) can1 18FFA800#FFFEFFFE04100FFB
(1604611945.109108) can1 0CF00400#007D7D000000F07D
(1604611945.110146) can1 0CF00A00#00000000FFFFFFFF
(1604611945.111079) can1 18FEDF00#86FFFFFF7DFFFE00
(1604611945.120085) can1 0CF00400#007D7D000000F07D
(1604611945.121070) can1 18F00E00#A00FFE71FFFFFFFF
(1604611945.122141) can1 18FDD000#FFFFFFFF19FFFFFF
(1604611945.129069) can1 1CEBFF00#1909018406090184
(1604611945.130146) can1 0CF00400#007D7D000000F07D
(1604611945.131071) can1 0CFEF100#FBFFFEAAAA001FFF
(1604611945.132075) can1 18FEDF00#86FFFFFF7DFFFE00
(1604611945.140088) can1 0CF00400#007D7D000000F07D
(1604611945.141086) can1 18FD9400#0000FFFFFFFFFFFF
(1604611945.142137) can1 18FEA600#0000FFFFFFFFFFFF
(1604611945.149053) can1 1CEBFF0F#0225602256E02E2B
(1604611945.150141) can1 0CF00400#007D7D000000F07D
(1604611945.151076) can1 0CF00300#FAFE00FFFF0C00FF
(1604611945.152083) can1 18FCFD00#FFFFFFFF0000FFFF
(1604611945.153076) can1 18FEDF00#86FFFFFF7DFFFE00
(1604611945.160088) can1 0CF00400#007D7D000000F07D
(1604611945.161097) can1 0CF00A00#00000000FFFFFFFF
(1604611945.162135) can1 0CFD9200#F0FFFFFFFFC3FFFF
(1604611945.163063) can1 18F0000F#207D7DF3007DFE63
(1604611945.169083) can1 0CF00400#007D7D000000F07D
(1604611945.170135) can1 18F00E00#A00FFE71FFFFFFFF
(1604611945.171086) can1 18FEF200#0000FFFEBF05FEFF
(1604611945.172080) can1 18FF4600#FF000000FFFFFFFF
(1604611945.173076) can1 18FEDF00#86FFFFFF7DFFFE00
(1604611945.180089) can1 0CF00400#007D7D000000F07D
(1604611945.181095) can1 10FDA300#FFFFFAFFFFFFFFFF
(1604611945.182134) can1 18FEE000#FFFFFFFF0F140A00
(1604611945.189080) can1 1CEBFF00#1A06090175020501
(1604611945.190145) can1 0CF00400#007D7D000000F07D
(1604611945.191077) can1 18FF4500#782AFA00FF0000AC
(1604611945.192075) can1 18FEDF00#86FFFFFF7DFFFE00
(1604611945.193075) can1 1CFE9200#FF8097FFFFFFFFFF
(1604611945.200088) can1 0CF00400#007D7D000000F07D
(1604611945.201085) can1 0CF00300#FAFE00FFFF0C00FF
(1604611945.202120) can1 18FFA600#F0FFFEA7FAFA8A01
(1604611945.209099) can1 1CEBFF0F#03A04134061FFFFF
(1604611945.210138) can1 0CF00400#007D7D000000F07D
(1604611945.211089) can1 0CF00A00#00000000FFFFFFFF
(1604611945.212076) can1 18FEDF00#86FFFFFF7DFFFE00
(1604611945.220082) can1 0CF00400#007D7D000000F07D
(1604611945.221079) can1 18F00E00#A00FFE71FFFFFFFF
(1604611945.222137) can1 18FEF500#A9FFFFFFFEFFFFFF
(1604611945.230155) can1 0CF00400#007D7D000000F07D
(1604611945.231074) can1 0CFEF100#FBFFFEAAAA001FFF
(1604611945.232089) can1 18FEDF00#86FFFFFF7DFFFE00
(1604611945.240098) can1 0CF00400#007D7D000000F07D
(1604611945.241091) can1 18FD9400#0000FFFFFFFFFFFF
(1604611945.242131) can1 18FE5600#FE3CFFFF9FBF00FF
(1604611945.249064) can1 1CEBFF00#1BF9130901FA1309
(1604611945.250138) can1 0CF00400#007D7D000000F07D
(1604611945.251076) can1 0CF00300#FAFE00FFFF0C00FF
(1604611945.252083) can1 18FCFD00#FFFFFFFF0000FFFF
(1604611945.253076) can1 18FEDF00#86FFFFFF7DFFFE00
(1604611945.260088) can1 0CF00400#007D7D000000F07D
(1604611945.261096) can1 0CF00A00#00000000FFFFFFFF
(1604611945.262124) can1 18F0000F#207D7DF3007DFE63
(1604611945.269093) can1 0CF00400#007D7D000000F07D
(1604611945.270139) can1 18F00E00#A00FFE71FFFFFFFF
(1604611945.271079) can1 18FEF200#0000FFFEBF05FEFF
(1604611945.272076) can1 18FEDF00#86FFFFFF7DFFFE00
(1604611945.280088) can1 0CF00400#007D7D000000F07D
(1604611945.281092) can1 10FDA300#FFFFFAFFFFFFFFFF
(1604611945.282132) can1 18FEE000#FFFFFFFF0F140A00
(1604611945.290146) can1 0CF00400#007D7D000000F07D
(1604611945.291078) can1 18FF4500#782AFA00FF0000AC
(1604611945.292076) can1 18FEDF00#86FFFFFF7DFFFE00
(1604611945.293079) can1 1CFE9200#FF8097FFFFFFFFFF
(1604611945.300085) can1 0CF00400#007D7D000000F07D
(1604611945.301080) can1 0CF00300#FAFE00FFFF0C00FF
(1604611945.302140) can1 18FFA800#FFFEFFFE04100FFB
(1604611945.309108) can1 1CEBFF00#1C01FFFFFFFFFFFF
(1604611945.310144) can1 0CF00400#007D7D000000F07D
(1604611945.311088) can1 0CF00A00#00000000FFFFFFFF
(1604611945.312076) can1 18FEDF00#86FFFFFF7DFFFE00
(1604611945.320084) can1 1CECFF00#20270006FFE3FE00
(1604611945.321086) can1 0CF00400#007D7D000000F07D
(1604611945.322127) can1 18F00E00#A00FFE71FFFFFFFF
(1604611945.323103) can1 18FD0700#57FFFFFFFFFFFFFF
(1604611945.329099) can1 0CF00400#007D7D000000F07D
(1604611945.330132) can1 0CFEF100#FBFFFEAAAA001FFF
(1604611945.331081) can1 18FEDF00#86FFFFFF7DFFFE00
(1604611945.340089) can1 0CF00400#007D7D000000F07D
(1604611945.341088) can1 18FD9400#0000FFFFFFFFFFFF
(1604611945.342145) can1 18FD7C00#FFFFFBFFFFFFFFFF
(1604611945.349085) can1 0CF00400#007D7D000000F07D
(1604611945.350138) can1 0CF00300#FAFE00FFFF0C00FF
(1604611945.351089) can1 18FCFD00#FFFFFFFF0000FFFF
(1604611945.352077) can1 18FEDF00#86FFFFFF7DFFFE00
(1604611945.360088) can1 0CF00400#007D7D000000F07D
(1604611945.361096) can1 0CF00A00#00000000FFFFFFFF
(1604611945.362124) can1 18F0000F#207D7DF3007DFE63
(1604611945.369093) can1 0CF00400#007D7D000000F07D
(1604611945.370140) can1 18F00E00#A00FFE71FFFFFFFF
(1604611945.371080) can1 18FEF200#0000FFFEBF05FEFF
(1604611945.372080) can1 18FEDF00#86FFFFFF7DFFFE00
(1604611945.379072) can1 1CEBFF00#015014A0603BA340
(1604611945.380085) can1 0CF00400#007D7D000000F07D
(1604611945.381094) can1 10FDA300#FFFFFAFFFFFFFFFF
(1604611945.382133) can1 18FEE000#FFFFFFFF0F140A00
(1604611945.390150) can1 0CF00400#007D7D000000F07D
(1604611945.391079) can1 18FF4500#782AFA00FF0000AC
(1604611945.392076) can1 18FEDF00#86FFFFFF7DFFFE00
(1604611945.393077) can1 1CFE9200#FF8097FFFFFFFFFF
(1604611945.400089) can1 0CF00400#007D7D000000F07D
(1604611945.401089) can1 0CF00300#FAFE00FFFF0C00FF
(1604611945.402145) can1 18FEEE00#FEFEFFFEFFFFFFFF
(1604611945.409094) can1 0CF00400#007D7D000000F07D
(1604611945.410147) can1 0CF00A00#00000000FFFFFFFF
(1604611945.411081) can1 0CFD9200#F0FFFFFFFFC3FFFF
(1604611945.412077) can1 18FEDF00#86FFFFFF7DFFFE00
(1604611945.420089) can1 0CF00400#007D7D000000F07D
(1604611945.421078) can1 18F00E00#A00FFE71FFFFFFFF
(1604611945.422141) can1 18FF4600#FF000000FFFFFFFF
(1604611945.430151) can1 0CF00400#007D7D000000F07D
(1604611945.431079) can1 0CFEF100#FBFFFEAAAA001FFF
(1604611945.432081) can1 18FEDF00#86FFFFFF7DFFFE00
(1604611945.440079) can1 1CEBFF00#021FB0502DB0B036
(1604611945.441092) can1 0CF00400#007D7D000000F07D
(1604611945.442142) can1 18FD9400#0000FFFFFFFFFFFF
(1604611945.443105) can1 18FD8C00#FFFEFFFFFFFFFFFF
(1604611945.449096) can1 0CF00400#007D7D000000F07D
(1604611945.450145) can1 0CF00300#FAFE00FFFF0C00FF
(1604611945.451095) can1 18FCFD00#FFFFFFFF0000FFFF
(1604611945.452079) can1 18FEDF00#86FFFFFF7DFFFE00
(1604611945.460090) can1 0CF00400#007D7D000000F07D
(1604611945.461112) can1 0CF00A00#00000000FFFFFFFF
(1604611945.462127) can1 18F0000F#207D7DF3007DFE63
(1604611945.469100) can1 0CF00400#007D7D000000F07D
(1604611945.470142) can1 18F00E00#A00FFE71FFFFFFFF
(1604611945.471083) can1 18FEF200#0000FFFEBF05FEFF
(1604611945.472077) can1 18FEDF00#86FFFFFF7DFFFE00
(1604611945.480091) can1 0CF00400#007D7D000000F07D
(1604611945.481096) can1 10FDA300#FFFFFAFFFFFFFFFF
(1604611945.482131) can1 18FEE000#FFFFFFFF0F140A00
(1604611945.490152) can1 0CF00400#007D7D000000F07D
(1604611945.491080) can1 18FF4500#782AFA00FF0000AC
(1604611945.492076) can1 18FEDF00#86FFFFFF7DFFFE00
(1604611945.493073) can1 1CFE9200#FF8097FFFFFFFFFF
(1604611945.499074) can1 1CEBFF00#03ABC0440005140A
(1604611945.500085) can1 0CF00400#007D7D000000F07D
(1604611945.501090) can1 0CF00300#FAFE00FFFF0C00FF
(1604611945.502142) can1 18FFA800#FFFEFFFE04100FFB
(1604611945.503078) can1 18FEEF00#FEFFFFFEFFFFFF00
(1604611945.509086) can1 0CF00400#007D7D000000F07D
(1604611945.510152) can1 0CF00A00#00000000FFFFFFFF
(1604611945.511081) can1 18FEDF00#86FFFFFF7DFFFE00
(1604611945.520093) can1 0CF00400#007D7D000000F07D
(1604611945.521083) can1 18F00E00#A00FFE71FFFFFFFF
(1604611945.522151) can1 18FEDB00#FFFF0000FFFFFFFF
(1604611945.529096) can1 0CF00400#007D7D000000F07D
(1604611945.530128) can1 0CFEF100#FBFFFEAAAA001FFF
(1604611945.531082) can1 18FEDF00#86FFFFFF7DFFFE00
(1604611945.540091) can1 0CF00400#007D7D000000F07D
(1604611945.541090) can1 18FD9400#0000FFFFFFFFFFFF
(1604611945.542129) can1 18FEF600#FEFEFEFEFFFFFEFF
(1604611945.549087) can1 0CF00400#007D7D000000F07D
(1604611945.550154) can1 0CF00300#FAFE00FFFF0C00FF
(1604611945.551092) can1 18FCFD00#FFFFFFFF0000FFFF
(1604611945.552080) can1 18FEDF00#86FFFFFF7DFFFE00
(1604611945.559067) can1 1CEBFF00#04C0440341967DE1
(1604611945.560087) can1 0CF00400#007D7D000000F07D
(1604611945.561104) can1 0CF00A00#00000000FFFFFFFF
(1604611945.562126) can1 18F0000F#207D7DF3007DFE63
(1604611945.569086) can1 0CF00400#007D7D000000F07D
(1604611945.570135) can1 18F00E00#A00FFE71FFFFFFFF
(1604611945.571082) can1 18FEF200#0000FFFEBF05FEFF
(1604611945.572077) can1 18FEDF00#86FFFFFF7DFFFE00
(1604611945.580090) can1 0CF00400#007D7D000000F07D
(1604611945.581098) can1 10FDA300#FFFFFAFFFFFFFFFF
(1604611945.582138) can1 18FEE000#FFFFFFFF0F140A00
(1604611945.590153) can1 0CF00400#007D7D000000F07D
(1604611945.591075) can1 18FF4500#782AFA00FF0000AC
(1604611945.592078) can1 18FEDF00#86FFFFFF7DFFFE00
(1604611945.593086) can1 1CFE9200#FF8097FFFFFFFFFF
(1604611945.600091) can1 0CF00400#007D7D000000F07D
(1604611945.601083) can1 0CF00300#FAFE00FFFF0C00FF
(1604611945.602142) can1 18FEA400#FFFFFFFFFFFF204A
(1604611945.609092) can1 0CF00400#007D7D000000F07D
(1604611945.610147) can1 0CF00A00#00000000FFFFFFFF
(1604611945.611082) can1 18FEDF00#86FFFFFF7DFFFE00
(1604611945.620077) can1 1CEBFF00#05E02EA203FFFF80
(1604611945.621087) can1 0CF00400#007D7D000000F07D
(1604611945.622138) can1 18F00E00#A00FFE71FFFFFFFF
(1604611945.623082) can1 18FDD000#FFFFFFFF19FFFFFF
(1604611945.630148) can1 0CF00400#007D7D000000F07D
(1604611945.631075) can1 0CFEF100#FBFFFEAAAA001FFF
(1604611945.632078) can1 18FEDF00#86FFFFFF7DFFFE00
(1604611945.640132) can1 0CF00400#007D7D000000F07D
(1604611945.641092) can1 18FD9400#0000FFFFFFFFFFFF
(1604611945.642145) can1 18FEA600#0000FFFFFFFFFFFF
(1604611945.649101) can1 0CF00400#007D7D000000F07D
(1604611945.650136) can1 0CF00300#FAFE00FFFF0C00FF
(1604611945.651091) can1 18FCFD00#FFFFFFFF0000FFFF
(1604611945.652080) can1 18FEDF00#86FFFFFF7DFFFE00
(1604611945.660088) can1 0CF00400#007D7D000000F07D
(1604611945.661104) can1 0CF00A00#00000000FFFFFFFF
(1604611945.662139) can1 0CFD9200#F0FFFFFFFFC3FFFF
(1604611945.663066) can1 18F0000F#207D7DF3007DFE63
(1604611945.669107) can1 0CF00400#007D7D000000F07D
(1604611945.670140) can1 18F00E00#A00FFE71FFFFFFFF
(1604611945.671091) can1 18FEF200#0000FFFEBF05FEFF
(1604611945.672084) can1 18FF4600#FF000000FFFFFFFF
(1604611945.673079) can1 18FEDF00#86FFFFFF7DFFFE00
(1604611945.680090) can1 1CEBFF00#06E0FFFFFFFFFFFF
(1604611945.681090) can1 0CF00400#007D7D000000F07D
(1604611945.682156) can1 10FDA300#FFFFFAFFFFFFFFFF
(1604611945.683080) can1 18FEE000#FFFFFFFF0F140A00
(1604611945.690146) can1 0CF00400#007D7D000000F07D
(1604611945.691076) can1 18FF4500#782AFA00FF0000AC
(1604611945.692080) can1 18FEDF00#86FFFFFF7DFFFE00
(1604611945.693084) can1 1CFE9200#FF8097FFFFFFFFFF
(1604611945.700089) can1 0CF00400#007D7D000000F07D
(1604611945.701081) can1 0CF00300#FAFE00FFFF0C00FF
(1604611945.702147) can1 18FFA800#FFFEFFFE04100FFB
(1604611945.709096) can1 0CF00400#007D7D000000F07D
(1604611945.710154) can1 0CF00A00#00000000FFFFFFFF
(1604611945.711084) can1 18FEDF00#86FFFFFF7DFFFE00
(1604611945.720091) can1 0CF00400#007D7D000000F07D
(1604611945.721083) can1 18F00E00#A00FFE71FFFFFFFF
(1604611945.722135) can1 18FE6900#FFFFFFFFFFFF201D
(1604611945.729096) can1 0CF00400#007D7D000000F07D
(1604611945.730133) can1 0CFEF100#FBFFFEAAAA001FFF
(1604611945.731083) can1 18FEDF00#86FFFFFF7DFFFE00
(1604611945.740086) can1 0CF00400#007D7D000000F07D
(1604611945.741092) can1 18FD9400#0000FFFFFFFFFFFF
(1604611945.742148) can1 18FEBD00#FFFF0000FFFFFFFF
(1604611945.749096) can1 0CF00400#007D7D000000F07D
(1604611945.750144) can1 0CF00300#FAFE00FFFF0C00FF
(1604611945.751092) can1 18FCFD00#FFFFFFFF0000FFFF
(1604611945.752080) can1 18FEDF00#86FFFFFF7DFFFE00
(1604611945.760093) can1 0CF00400#007D7D000000F07D
(1604611945.761098) can1 0CF00A00#00000000FFFFFFFF
(1604611945.762127) can1 18F0000F#207D7DF3007DFE63
(1604611945.769089) can1 0CF00400#007D7D000000F07D
(1604611945.770137) can1 18F00E00#A00FFE71FFFFFFFF
(1604611945.771084) can1 18FEF200#0000FFFEBF05FEFF
(1604611945.772097) can1 18FEDF00#86FFFFFF7DFFFE00
(1604611945.780090) can1 0CF00400#007D7D000000F07D
(1604611945.781097) can1 10FDA300#FFFFFAFFFFFFFFFF
(1604611945.782136) can1 18FEE000#FFFFFFFF0F140A00
(1604611945.790150) can1 0CF00400#007D7D000000F07D
(1604611945.791081) can1 18FF4500#782AFA00FF0000AC
(1604611945.792079) can1 18FEDF00#86FFFFFF7DFFFE00
(1604611945.793080) can1 1CFE9200#FF8097FFFFFFFFFF
(1604611945.800089) can1 0CF00400#007D7D000000F07D
(1604611945.801084) can1 0CF00300#FAFE00FFFF0C00FF
(1604611945.802128) can1 18FEE400#A07FFDFCF0FFFFFF
(1604611945.809103) can1 0CF00400#007D7D000000F07D
(1604611945.810155) can1 0CF00A00#00000000FFFFFFFF
(1604611945.811084) can1 18FEDF00#86FFFFFF7DFFFE00
(1604611945.820092) can1 0CF00400#007D7D000000F07D
(1604611945.821087) can1 18F00E00#A00FFE71FFFFFFFF
(1604611945.822143) can1 18FEDD00#FF0000FFFFFFFFFF
(1604611945.830150) can1 0CF00400#007D7D000000F07D
(1604611945.831076) can1 0CFEF100#FBFFFEAAAA001FFF
(1604611945.832081) can1 18FEDF00#86FFFFFF7DFFFE00
(1604611945.840092) can1 0CF00400#007D7D000000F07D
(1604611945.841088) can1 18FD9400#0000FFFFFFFFFFFF
(1604611945.842143) can1 18FE9A00#2027FFFFFFFFFFFF
(1604611945.849098) can1 0CF00400#007D7D000000F07D
(1604611945.850138) can1 0CF00300#FAFE00FFFF0C00FF
(1604611945.851093) can1 18FCFD00#FFFFFFFF0000FFFF
(1604611945.852080) can1 18FEDF00#86FFFFFF7DFFFE00
(1604611945.860089) can1 0CF00400#007D7D000000F07D
(1604611945.861098) can1 0CF00A00#00000000FFFFFFFF
(1604611945.862128) can1 18F0000F#207D7DF3007DFE63
(1604611945.863076) can1 18FE9900#73A7FFFFFFFFFFFF
(1604611945.869090) can1 0CF00400#007D7D000000F07D
(1604611945.870144) can1 18F00E00#A00FFE71FFFFFFFF
(1604611945.871089) can1 18FEF200#0000FFFEBF05FEFF
(1604611945.872080) can1 18FEDF00#86FFFFFF7DFFFE00
(1604611945.880092) can1 0CF00400#007D7D000000F07D
(1604611945.881099) can1 10FDA300#FFFFFAFFFFFFFFFF
(1604611945.882136) can1 18FEE000#FFFFFFFF0F140A00
(1604611945.883084) can1 18FE9800#0032FFFFFFFFFFFF
(1604611945.890154) can1 0CF00400#007D7D000000F07D
(1604611945.891083) can1 18FF4500#782AFA00FF0000AC
(1604611945.892080) can1 18FEDF00#86FFFFFF7DFFFE00
(1604611945.893094) can1 1CFE9200#FF8097FFFFFFFFFF
(1604611945.900095) can1 0CF00400#007D7D000000F07D
(1604611945.901081) can1 0CF00300#FAFE00FFFF0C00FF
(1604611945.902146) can1 18FFA800#FFFEFFFE04100FFB
(1604611945.903088) can1 18FE9700#0032FFFFFFFFFFFF
(1604611945.909099) can1 0CF00400#007D7D000000F07D
(1604611945.910156) can1 0CF00A00#00000000FFFFFFFF
(1604611945.911095) can1 0CFD9200#F0FFFFFFFFC3FFFF
(1604611945.912086) can1 18FEDF00#86FFFFFF7DFFFE00
(1604611945.920099) can1 0CF00400#007D7D000000F07D
(1604611945.921087) can1 18F00E00#A00FFE71FFFFFFFF
(1604611945.922146) can1 18FF4600#FF000000FFFFFFFF
(1604611945.923089) can1 18FDD300#FFFEFFFFFFFFFFFF
(1604611945.930144) can1 0CF00400#007D7D000000F07D
(1604611945.931077) can1 0CFEF100#FBFFFEAAAA001FFF
(1604611945.932080) can1 18FEDF00#86FFFFFF7DFFFE00
(1604611945.933073) can1 18FEC100#81F5FB0081F5FB00
(1604611945.940088) can1 0CF00400#007D7D000000F07D
(1604611945.941097) can1 18FD9400#0000FFFFFFFFFFFF
(1604611945.942152) can1 18FD8C00#FFFEFFFFFFFFFFFF
(1604611945.943080) can1 18FEF700#FFFFFFFFEA00FFFF
(1604611945.949098) can1 0CF00400#007D7D000000F07D
(1604611945.950143) can1 0CF00300#FAFE00FFFF0C00FF
(1604611945.951092) can1 18FCFD00#FFFFFFFF0000FFFF
(1604611945.952081) can1 18FEDF00#86FFFFFF7DFFFE00
(1604611945.960089) can1 0CF00400#007D7D000000F07D
(1604611945.961099) can1 0CF00A00#00000000FFFFFFFF
(1604611945.962128) can1 18F0000F#207D7DF3007DFE63
(1604611945.963081) can1 18FF4A00#6F00C0FFFFFFFFFF
(1604611945.969098) can1 0CF00400#007D7D000000F07D
(1604611945.970144) can1 18F00E00#A00FFE71FFFFFFFF
(1604611945.971085) can1 18FEF200#0000FFFEBF05FEFF
(1604611945.972081) can1 18FEDF00#86FFFFFF7DFFFE00
(1604611945.980093) can1 0CF00400#007D7D000000F07D
(1604611945.981102) can1 10FDA300#FFFFFAFFFFFFFFFF
(1604611945.982136) can1 18FEE000#FFFFFFFF0F140A00
(1604611945.983065) can1 18FD0900#FFFFFFFF0C78B601
(1604611945.990147) can1 0CF00400#007D7D000000F07D
(1604611945.991077) can1 18FF4500#782AFA00FF0000AC
(1604611945.992081) can1 18FEDF00#86FFFFFF7DFFFE00
(1604611945.993081) can1 1CFE9200#FF8097FFFFFFFFFF
(1604611946.000094) can1 0CF00400#007D7D000000F07D
(1604611946.001087) can1 0CF00300#FAFE00FFFF0C00FF
(1604611946.002146) can1 18FEEF00#FEFFFFFEFFFFFF00
(1604611946.003090) can1 18FF4800#0000F3FF00000000
(1604611946.009102) can1 0CF00400#007D7D000000F07D
(1604611946.010146) can1 0CF00A00#00000000FFFFFFFF
(1604611946.011085) can1 18FEDF00#86FFFFFF7DFFFE00
(1604611946.020094) can1 0CF00400#007D7D000000F07D
(1604611946.021090) can1 18F00E00#A00FFE71FFFFFFFF
(1604611946.022153) can1 18FEDB00#FFFF0000FFFFFFFF
(1604611946.030154) can1 0CF00400#007D7D000000F07D
(1604611946.031080) can1 0CFEF100#FBFFFEAAAA001FFF
(1604611946.032083) can1 18FEDF00#86FFFFFF7DFFFE00
(1604611946.040096) can1 0CF00400#007D7D000000F07D
(1604611946.041088) can1 18FD9400#0000FFFFFFFFFFFF
(1604611946.042133) can1 18FEF600#FEFEFEFEFFFFFEFF
(1604611946.049098) can1 0CF00400#007D7D000000F07D
(1604611946.050149) can1 0CF00300#FAFE00FFFF0C00FF
(1604611946.051098) can1 18FCFD00#FFFFFFFF0000FFFF
(1604611946.052082) can1 18FEDF00#86FFFFFF7DFFFE00
(1604611946.059082) can1 1CECFF00#20BE001CFFCAFE00
(1604611946.060085) can1 0CF00400#007D7D000000F07D
(1604611946.061101) can1 0CF00A00#00000000FFFFFFFF
(1604611946.062130) can1 18F0000F#207D7DF3007DFE63
(1604611946.069090) can1 0CF00400#007D7D000000F07D
(1604611946.070145) can1 18F00E00#A00FFE71FFFFFFFF
(1604611946.071085) can1 18FEF200#0000FFFEBF05FEFF
(1604611946.072082) can1 18FEDF00#86FFFFFF7DFFFE00
(1604611946.080094) can1 0CF00400#007D7D000000F07D
(1604611946.081098) can1 10FDA300#FFFFFAFFFFFFFFFF
(1604611946.082138) can1 18FEE000#FFFFFFFF0F140A00
(1604611946.089092) can1 0CF00400#007D7D000000F07D
(1604611946.090135) can1 18FF4500#782AFA00FF0000AC
(1604611946.091092) can1 18FEDF00#86FFFFFF7DFFFE00
(1604611946.092083) can1 1CFE9200#FF8097FFFFFFFFFF
(1604611946.100091) can1 0CF00400#007D7D000000F07D
(1604611946.101087) can1 0CF00300#FAFE00FFFF0C00FF
(1604611946.102142) can1 18FFA800#FFFEFFFE04100FFB
(1604611946.109105) can1 0CF00400#007D7D000000F07D
(1604611946.110158) can1 0CF00A00#00000000FFFFFFFF
(1604611946.111087) can1 18FEDF00#86FFFFFF7DFFFE00
(1604611946.120087) can1 1CEBFF00#0157FF9D000301FB
(1604611946.121090) can1 0CF00400#007D7D000000F07D
(1604611946.122137) can1 18F00E00#A00FFE71FFFFFFFF
(1604611946.123086) can1 18FDD000#FFFFFFFF19FFFFFF
(1604611946.129092) can1 0CF00400#007D7D000000F07D
(1604611946.130135) can1 0CFEF100#FBFFFEAAAA001FFF
(1604611946.131095) can1 18FEDF00#86FFFFFF7DFFFE00
(1604611946.140096) can1 0CF00400#007D7D000000F07D
(1604611946.141101) can1 18FD9400#0000FFFFFFFFFFFF
(1604611946.142147) can1 18FEA600#0000FFFFFFFFFFFF
(1604611946.149093) can1 0CF00400#007D7D000000F07D
(1604611946.150144) can1 0CF00300#FAFE00FFFF0C00FF
(1604611946.151094) can1 18FCFD00#FFFFFFFF0000FFFF
(1604611946.152083) can1 18FEDF00#86FFFFFF7DFFFE00
(1604611946.160092) can1 0CF00400#007D7D000000F07D
(1604611946.161094) can1 0CF00A00#00000000FFFFFFFF
(1604611946.162146) can1 0CFD9200#F0FFFFFFFFC3FFFF
(1604611946.163071) can1 18F0000F#207D7DF3007DFE63
(1604611946.169103) can1 0CF00400#007D7D000000F07D
(1604611946.170147) can1 18F00E00#A00FFE71FFFFFFFF
(1604611946.171093) can1 18FEF200#0000FFFEBF05FEFF
(1604611946.172087) can1 18FF4600#FF000000FFFFFFFF
(1604611946.173087) can1 18FEDF00#86FFFFFF7DFFFE00
(1604611946.179083) can1 1CEBFF00#02060B7E4A000E7E
(1604611946.180086) can1 0CF00400#007D7D000000F07D
(1604611946.181095) can1 10FDA300#FFFFFAFFFFFFFFFF
(1604611946.182138) can1 18FEE000#FFFFFFFF0F140A00
(1604611946.190153) can1 0CF00400#007D7D000000F07D
(1604611946.191079) can1 18FF4500#782AFA00FF0000AC
(1604611946.192082) can1 18FEDF00#86FFFFFF7DFFFE00
(1604611946.193083) can1 1CFE9200#FF8097FFFFFFFFFF
(1604611946.200092) can1 0CF00400#007D7D000000F07D
(1604611946.201095) can1 0CF00300#FAFE00FFFF0C00FF
(1604611946.202127) can1 18FFA600#F0FFFEA7FAFA8A01
(1604611946.209100) can1 0CF00400#007D7D000000F07D
(1604611946.210152) can1 0CF00A00#00000000FFFFFFFF
(1604611946.211087) can1 18FEDF00#86FFFFFF7DFFFE00
(1604611946.220095) can1 0CF00400#007D7D000000F07D
(1604611946.221087) can1 18F00E00#A00FFE71FFFFFFFF
(1604611946.222143) can1 18FEF500#A9FFFFFFFEFFFFFF
(1604611946.229100) can1 0CF00400#007D7D000000F07D
(1604611946.230136) can1 0CFEF100#FBFFFEAAAA001FFF
(1604611946.231105) can1 18FEDF00#86FFFFFF7DFFFE00
(1604611946.240085) can1 1CEBFF00#03E1060E7E660004
(1604611946.241087) can1 0CF00400#007D7D000000F07D
(1604611946.242147) can1 18FD9400#0000FFFFFFFFFFFF
(1604611946.243072) can1 18FE5600#FE3CFFFF9FBF00FF
(1604611946.249100) can1 0CF00400#007D7D000000F07D
(1604611946.250150) can1 0CF00300#FAFE00FFFF0C00FF
(1604611946.251098) can1 18FCFD00#FFFFFFFF0000FFFF
(1604611946.252085) can1 18FEDF00#86FFFFFF7DFFFE00
(1604611946.260094) can1 0CF00400#007D7D000000F07D
(1604611946.261100) can1 0CF00A00#00000000FFFFFFFF
(1604611946.262136) can1 18F0000F#207D7DF3007DFE63
(1604611946.269105) can1 0CF00400#007D7D000000F07D
(1604611946.270137) can1 18F00E00#A00FFE71FFFFFFFF
(1604611946.271087) can1 18FEF200#0000FFFEBF05FEFF
(1604611946.272082) can1 18FEDF00#86FFFFFF7DFFFE00
(1604611946.280143) can1 0CF00400#007D7D000000F07D
(1604611946.281100) can1 10FDA300#FFFFFAFFFFFFFFFF
(1604611946.282139) can1 18FEE000#FFFFFFFF0F140A00
(1604611946.290153) can1 0CF00400#007D7D000000F07D
(1604611946.291086) can1 18FF4500#782AFA00FF0000AC
(1604611946.292084) can1 18FEDF00#86FFFFFF7DFFFE00
(1604611946.293083) can1 1CFE9200#FF8097FFFFFFFFFF
(1604611946.299076) can1 1CEBFF00#040151000401B904
(1604611946.300091) can1 0CF00400#007D7D000000F07D
(1604611946.301096) can1 0CF00300#FAFE00FFFF0C00FF
(1604611946.302148) can1 18FFA800#FFFEFFFE04100FFB
(1604611946.309093) can1 0CF00400#007D7D000000F07D
(1604611946.310159) can1 0CF00A00#00000000FFFFFFFF
(1604611946.311087) can1 18FEDF00#86FFFFFF7DFFFE00
(1604611946.320092) can1 0CF00400#007D7D000000F07D
(1604611946.321083) can1 18F00E00#A00FFE71FFFFFFFF
(1604611946.322152) can1 18FD0700#57FFFFFFFFFFFFFF
(1604611946.329105) can1 0CF00400#007D7D000000F07D
(1604611946.330137) can1 0CFEF100#FBFFFEAAAA001FFF
(1604611946.331088) can1 18FEDF00#86FFFFFF7DFFFE00
(1604611946.340096) can1 0CF00400#007D7D000000F07D
(1604611946.341091) can1 18FD9400#0000FFFFFFFFFFFF
(1604611946.342151) can1 18FD7C00#FFFFFBFFFFFFFFFF
(1604611946.349095) can1 0CF00400#007D7D000000F07D
(1604611946.350145) can1 0CF00300#FAFE00FFFF0C00FF
(1604611946.351096) can1 18FCFD00#FFFFFFFF0000FFFF
(1604611946.352101) can1 18FEDF00#86FFFFFF7DFFFE00
(1604611946.359077) can1 1CEBFF00#0504016900030146
(1604611946.360100) can1 0CF00400#007D7D000000F07D
(1604611946.361111) can1 0CF00A00#00000000FFFFFFFF
(1604611946.362127) can1 18F0000F#207D7DF3007DFE63
(1604611946.369095) can1 0CF00400#007D7D000000F07D
(1604611946.370149) can1 18F00E00#A00FFE71FFFFFFFF
(1604611946.371087) can1 18FEF200#0000FFFEBF05FEFF
(1604611946.372085) can1 18FEDF00#86FFFFFF7DFFFE00
(1604611946.380094) can1 0CF00400#007D7D000000F07D
(1604611946.381098) can1 10FDA300#FFFFFAFFFFFFFFFF
(1604611946.382140) can1 18FEE000#FFFFFFFF0F140A00
(1604611946.390153) can1 0CF00400#007D7D000000F07D
(1604611946.391086) can1 18FF4500#782AFA00FF0000AC
(1604611946.392084) can1 18FEDF00#86FFFFFF7DFFFE00
(1604611946.393083) can1 1CFE9200#FF8097FFFFFFFFFF
(1604611946.400093) can1 0CF00400#007D7D000000F07D
(1604611946.401089) can1 0CF00300#FAFE00FFFF0C00FF
(1604611946.402148) can1 18FEEE00#FEFEFFFEFFFFFFFF
(1604611946.409093) can1 0CF00400#007D7D000000F07D
(1604611946.410153) can1 0CF00A00#00000000FFFFFFFF
(1604611946.411089) can1 0CFD9200#F0FFFFFFFFC3FFFF
(1604611946.412084) can1 18FEDF00#86FFFFFF7DFFFE00
(1604611946.419080) can1 1CEBFF00#060A0301AB000301
(1604611946.420088) can1 0CF00400#007D7D000000F07D
(1604611946.421086) can1 18F00E00#A00FFE71FFFFFFFF
(1604611946.422146) can1 18FF4600#FF000000FFFFFFFF
(1604611946.430157) can1 0CF00400#007D7D000000F07D
(1604611946.431081) can1 0CFEF100#FBFFFEAAAA001FFF
(1604611946.432084) can1 18FEDF00#86FFFFFF7DFFFE00
(1604611946.440094) can1 0CF00400#007D7D000000F07D
(1604611946.441098) can1 18FD9400#0000FFFFFFFFFFFF
(1604611946.442156) can1 18FD8C00#FFFEFFFFFFFFFFFF
(1604611946.449101) can1 0CF00400#007D7D000000F07D
(1604611946.450142) can1 0CF00300#FAFE00FFFF0C00FF
(1604611946.451102) can1 18FCFD00#FFFFFFFF0000FFFF
(1604611946.452084) can1 18FEDF00#86FFFFFF7DFFFE00
(1604611946.460093) can1 0CF00400#007D7D000000F07D
(1604611946.461111) can1 0CF00A00#00000000FFFFFFFF
(1604611946.462135) can1 18F0000F#207D7DF3007DFE63
(1604611946.469114) can1 0CF00400#007D7D000000F07D
(1604611946.470151) can1 18F00E00#A00FFE71FFFFFFFF
(1604611946.471090) can1 18FEF200#0000FFFEBF05FEFF
(1604611946.472086) can1 18FEDF00#86FFFFFF7DFFFE00
(1604611946.480082) can1 1CEBFF00#07CF040201D30402
(1604611946.481094) can1 0CF00400#007D7D000000F07D
(1604611946.482154) can1 10FDA300#FFFFFAFFFFFFFFFF
(1604611946.483081) can1 18FEE000#FFFFFFFF0F140A00
(1604611946.490154) can1 0CF00400#007D7D000000F07D
(1604611946.491080) can1 18FF4500#782AFA00FF0000AC
(1604611946.492085) can1 18FEDF00#86FFFFFF7DFFFE00
(1604611946.493089) can1 1CFE9200#FF8097FFFFFFFFFF
(1604611946.500093) can1 0CF00400#007D7D000000F07D
(1604611946.501090) can1 0CF00300#FAFE00FFFF0C00FF
(1604611946.502150) can1 18FFA800#FFFEFFFE04100FFB
(1604611946.503085) can1 18FEEF00#FEFFFFFEFFFFFF00
(1604611946.509098) can1 0CF00400#007D7D000000F07D
(1604611946.510164) can1 0CF00A00#00000000FFFFFFFF
(1604611946.511089) can1 18FEDF00#86FFFFFF7DFFFE00
(1604611946.520093) can1 0CF00400#007D7D000000F07D
(1604611946.521093) can1 18F00E00#A00FFE71FFFFFFFF
(1604611946.522156) can1 18FEDB00#FFFF0000FFFFFFFF
(1604611946.529094) can1 0CF00400#007D7D000000F07D
(1604611946.530139) can1 0CFEF100#FBFFFEAAAA001FFF
(1604611946.531089) can1 18FEDF00#86FFFFFF7DFFFE00
(1604611946.539084) can1 1CEBFF00#0801840602016E00
(1604611946.540091) can1 0CF00400#007D7D000000F07D
(1604611946.541091) can1 18FD9400#0000FFFFFFFFFFFF
(1604611946.542142) can1 18FEF600#FEFEFEFEFFFFFEFF
(1604611946.549093) can1 0CF00400#007D7D000000F07D
(1604611946.550139) can1 0CF00300#FAFE00FFFF0C00FF
(1604611946.551097) can1 18FCFD00#FFFFFFFF0000FFFF
(1604611946.552086) can1 18FEDF00#86FFFFFF7DFFFE00
(1604611946.560099) can1 0CF00400#007D7D000000F07D
(1604611946.561105) can1 0CF00A00#00000000FFFFFFFF
(1604611946.562153) can1 18F0000F#207D7DF3007DFE63
(1604611946.569108) can1 0CF00400#007D7D000000F07D
(1604611946.570159) can1 18F00E00#A00FFE71FFFFFFFF
(1604611946.571093) can1 18FEF200#0000FFFEBF05FEFF
(1604611946.572085) can1 18FEDF00#86FFFFFF7DFFFE00
(1604611946.580099) can1 0CF00400#007D7D000000F07D
(1604611946.581104) can1 10FDA300#FFFFFAFFFFFFFFFF
(1604611946.582153) can1 18FEE000#FFFFFFFF0F140A00
(1604611946.590168) can1 0CF00400#007D7D000000F07D
(1604611946.591090) can1 18FF4500#782AFA00FF0000AC
(1604611946.592091) can1 18FEDF00#86FFFFFF7DFFFE00
(1604611946.593086) can1 1CFE9200#FF8097FFFFFFFFFF
(1604611946.599088) can1 1CEBFF00#0903015E000401AE
(1604611946.600094) can1 0CF00400#007D7D000000F07D
(1604611946.601099) can1 0CF00300#FAFE00FFFF0C00FF
(1604611946.602144) can1 18FEA400#FFFFFFFFFFFF204A
(1604611946.609104) can1 0CF00400#007D7D000000F07D
(1604611946.610156) can1 0CF00A00#00000000FFFFFFFF
(1604611946.611090) can1 18FEDF00#86FFFFFF7DFFFE00
(1604611946.620098) can1 0CF00400#007D7D000000F07D
(1604611946.621104) can1 18F00E00#A00FFE71FFFFFFFF
(1604611946.622154) can1 18FDD000#FFFFFFFF19FFFFFF
(1604611946.629102) can1 0CF00400#007D7D000000F07D
(1604611946.630140) can1 0CFEF100#FBFFFEAAAA001FFF
(1604611946.631090) can1 18FEDF00#86FFFFFF7DFFFE00
(1604611946.640099) can1 0CF00400#007D7D000000F07D
(1604611946.641097) can1 18FD9400#0000FFFFFFFFFFFF
(1604611946.642153) can1 18FEA600#0000FFFFFFFFFFFF
(1604611946.649108) can1 0CF00400#007D7D000000F07D
(1604611946.650146) can1 0CF00300#FAFE00FFFF0C00FF
(1604611946.651099) can1 18FCFD00#FFFFFFFF0000FFFF
(1604611946.652086) can1 18FEDF00#86FFFFFF7DFFFE00
(1604611946.659087) can1 1CEBFF00#0A000301F5131301
(1604611946.660094) can1 0CF00400#007D7D000000F07D
(1604611946.661109) can1 0CF00A00#00000000FFFFFFFF
(1604611946.662153) can1 0CFD9200#F0FFFFFFFFC3FFFF
(1604611946.663074) can1 18F0000F#207D7DF3007DFE63
(1604611946.669100) can1 0CF00400#007D7D000000F07D
(1604611946.670150) can1 18F00E00#A00FFE71FFFFFFFF
(1604611946.671097) can1 18FEF200#0000FFFEBF05FEFF
(1604611946.672091) can1 18FF4600#FF000000FFFFFFFF
(1604611946.673090) can1 18FEDF00#86FFFFFF7DFFFE00
(1604611946.680095) can1 0CF00400#007D7D000000F07D
(1604611946.681112) can1 10FDA300#FFFFFAFFFFFFFFFF
(1604611946.682149) can1 18FEE000#FFFFFFFF0F140A00
(1604611946.690161) can1 0CF00400#007D7D000000F07D
(1604611946.691082) can1 18FF4500#782AFA00FF0000AC
(1604611946.692087) can1 18FEDF00#86FFFFFF7DFFFE00
(1604611946.693090) can1 1CFE9200#FF8097FFFFFFFFFF
(1604611946.700100) can1 0CF00400#007D7D000000F07D
(1604611946.701095) can1 0CF00300#FAFE00FFFF0C00FF
(1604611946.702149) can1 18FFA800#FFFEFFFE04100FFB
(1604611946.709104) can1 0CF00400#007D7D000000F07D
(1604611946.710163) can1 0CF00A00#00000000FFFFFFFF
(1604611946.711091) can1 18FEDF00#86FFFFFF7DFFFE00
(1604611946.720084) can1 1CEBFF00#0B910C1301610209
(1604611946.721095) can1 0CF00400#007D7D000000F07D
(1604611946.722147) can1 18F00E00#A00FFE71FFFFFFFF
(1604611946.723083) can1 18FE6900#FFFFFFFFFFFF201D
(1604611946.729100) can1 0CF00400#007D7D000000F07D
(1604611946.730140) can1 0CFEF100#FBFFFEAAAA001FFF
(1604611946.731091) can1 18FEDF00#86FFFFFF7DFFFE00
(1604611946.740099) can1 0CF00400#007D7D000000F07D
(1604611946.741090) can1 18FD9400#0000FFFFFFFFFFFF
(1604611946.742150) can1 18FEBD00#FFFF0000FFFFFFFF
(1604611946.749112) can1 0CF00400#007D7D000000F07D
(1604611946.750145) can1 0CF00300#FAFE00FFFF0C00FF
(1604611946.751100) can1 18FCFD00#FFFFFFFF0000FFFF
(1604611946.752087) can1 18FEDF00#86FFFFFF7DFFFE00
(1604611946.760100) can1 0CF00400#007D7D000000F07D
(1604611946.761107) can1 0CF00A00#00000000FFFFFFFF
(1604611946.762151) can1 18F0000F#207D7DF3007DFE63
(1604611946.769098) can1 0CF00400#007D7D000000F07D
(1604611946.770151) can1 18F00E00#A00FFE71FFFFFFFF
(1604611946.771092) can1 18FEF200#0000FFFEBF05FEFF
(1604611946.772086) can1 18FEDF00#86FFFFFF7DFFFE00
(1604611946.779096) can1 1CEBFF00#0C017F0209018406
(1604611946.780094) can1 0CF00400#007D7D000000F07D
(1604611946.781110) can1 10FDA300#FFFFFAFFFFFFFFFF
(1604611946.782147) can1 18FEE000#FFFFFFFF0F140A00
(1604611946.790161) can1 0CF00400#007D7D000000F07D
(1604611946.791083) can1 18FF4500#782AFA00FF0000AC
(1604611946.792087) can1 18FEDF00#86FFFFFF7DFFFE00
(1604611946.793091) can1 1CFE9200#FF8097FFFFFFFFFF
(1604611946.800100) can1 0CF00400#007D7D000000F07D
(1604611946.801088) can1 0CF00300#FAFE00FFFF0C00FF
(1604611946.802129) can1 18FEE400#A07FFDFCF0FFFFFF
(1604611946.809126) can1 0CF00400#007D7D000000F07D
(1604611946.810161) can1 0CF00A00#00000000FFFFFFFF
(1604611946.811092) can1 18FEDF00#86FFFFFF7DFFFE00
(1604611946.820104) can1 0CF00400#007D7D000000F07D
(1604611946.821084) can1 18F00E00#A00FFE71FFFFFFFF
(1604611946.822155) can1 18FEDD00#FF0000FFFFFFFFFF
(1604611946.830162) can1 0CF00400#007D7D000000F07D
(1604611946.831084) can1 0CFEF100#FBFFFEAAAA001FFF
(1604611946.832088) can1 18FEDF00#86FFFFFF7DFFFE00
(1604611946.840086) can1 1CEBFF00#0D090184060901F8
(1604611946.841099) can1 0CF00400#007D7D000000F07D
(1604611946.842152) can1 18FD9400#0000FFFFFFFFFFFF
(1604611946.843091) can1 18FE9A00#2027FFFFFFFFFFFF
(1604611946.849100) can1 0CF00400#007D7D000000F07D
(1604611946.850141) can1 0CF00300#FAFE00FFFF0C00FF
(1604611946.851100) can1 18FCFD00#FFFFFFFF0000FFFF
(1604611946.852093) can1 18FEDF00#86FFFFFF7DFFFE00
(1604611946.860100) can1 0CF00400#007D7D000000F07D
(1604611946.861102) can1 0CF00A00#00000000FFFFFFFF
(1604611946.862140) can1 18F0000F#207D7DF3007DFE63
(1604611946.863084) can1 18FE9900#73A7FFFFFFFFFFFF
(1604611946.869105) can1 0CF00400#007D7D000000F07D
(1604611946.870145) can1 18F00E00#A00FFE71FFFFFFFF
(1604611946.871091) can1 18FEF200#0000FFFEBF05FEFF
(1604611946.872088) can1 18FEDF00#86FFFFFF7DFFFE00
(1604611946.880118) can1 0CF00400#007D7D000000F07D
(1604611946.881107) can1 10FDA300#FFFFFAFFFFFFFFFF
(1604611946.882145) can1 18FEE000#FFFFFFFF0F140A00
(1604611946.883092) can1 18FE9800#0032FFFFFFFFFFFF
(1604611946.890161) can1 0CF00400#007D7D000000F07D
(1604611946.891084) can1 18FF4500#782AFA00FF0000AC
(1604611946.892089) can1 18FEDF00#86FFFFFF7DFFFE00
(1604611946.893091) can1 1CFE9200#FF8097FFFFFFFFFF
(1604611946.899080) can1 1CEBFF00#0E13090184060901
(1604611946.900096) can1 0CF00400#007D7D000000F07D
(1604611946.901097) can1 0CF00300#FAFE00FFFF0C00FF
(1604611946.902157) can1 18FFA800#FFFEFFFE04100FFB
(1604611946.903097) can1 18FE9700#0032FFFFFFFFFFFF
(1604611946.909114) can1 0CF00400#007D7D000000F07D
(1604611946.910169) can1 0CF00A00#00000000FFFFFFFF
(1604611946.911098) can1 0CFD9200#F0FFFFFFFFC3FFFF
(1604611946.912093) can1 18FEDF00#86FFFFFF7DFFFE00
(1604611946.920100) can1 0CF00400#007D7D000000F07D
(1604611946.921094) can1 18F00E00#A00FFE71FFFFFFFF
(1604611946.922153) can1 18FF4600#FF000000FFFFFFFF
(1604611946.923097) can1 18FDD300#FFFEFFFFFFFFFFFF
(1604611946.929096) can1 0CF00400#007D7D000000F07D
(1604611946.930151) can1 0CFEF100#FBFFFEAAAA001FFF
(1604611946.931092) can1 18FEDF00#86FFFFFF7DFFFE00
(1604611946.932080) can1 18FEC100#81F5FB0081F5FB00
(1604611946.940102) can1 0CF00400#007D7D000000F07D
(1604611946.941109) can1 18FD9400#0000FFFFFFFFFFFF
(1604611946.942158) can1 18FD8C00#FFFEFFFFFFFFFFFF
(1604611946.943088) can1 18FEF700#FFFFFFFFEA00FFFF
(1604611946.949095) can1 0CF00400#007D7D000000F07D
(1604611946.950156) can1 0CF00300#FAFE00FFFF0C00FF
(1604611946.951108) can1 18FCFD00#FFFFFFFF0000FFFF
(1604611946.952092) can1 18FEDF00#86FFFFFF7DFFFE00
(1604611946.959089) can1 1CEBFF00#0F84060901840609
(1604611946.960096) can1 0CF00400#007D7D000000F07D
(1604611946.961108) can1 0CF00A00#00000000FFFFFFFF
(1604611946.962136) can1 18F0000F#207D7DF3007DFE63
(1604611946.963088) can1 18FF4A00#6F00C0FFFFFFFFFF
(1604611946.969113) can1 0CF00400#007D7D000000F07D
(1604611946.970147) can1 18F00E00#A00FFE71FFFFFFFF
(1604611946.971093) can1 18FEF200#0000FFFEBF05FEFF
(1604611946.972104) can1 18FEDF00#86FFFFFF7DFFFE00
(1604611946.980104) can1 0CF00400#007D7D000000F07D
(1604611946.981106) can1 10FDA300#FFFFFAFFFFFFFFFF
(1604611946.982150) can1 18FEE000#FFFFFFFF0F140A00
(1604611946.983073) can1 18FD0900#FFFFFFFF0C78B601
(1604611946.990162) can1 0CF00400#007D7D000000F07D
(1604611946.991091) can1 18FF4500#782AFA00FF0000AC
(1604611946.992093) can1 18FEDF00#86FFFFFF7DFFFE00
(1604611946.993093) can1 1CFE9200#FF8097FFFFFFFFFF
(1604611947.000100) can1 0CF00400#007D7D000000F07D
(1604611947.001101) can1 0CF00300#FAFE00FFFF0C00FF
(1604611947.002147) can1 18FEEF00#FEFFFFFEFFFFFF00
(1604611947.003096) can1 18FF4800#0000F3FF00000000
(1604611947.009102) can1 0CF00400#007D7D000000F07D
(1604611947.010159) can1 0CF00A00#00000000FFFFFFFF
(1604611947.011102) can1 18FEDF00#86FFFFFF7DFFFE00
(1604611947.019099) can1 1CEBFF00#100184060901FD13
(1604611947.020098) can1 0CF00400#007D7D000000F07D
(1604611947.021099) can1 18F00E00#A00FFE71FFFFFFFF
(1604611947.022158) can1 18FEDB00#FFFF0000FFFFFFFF
(1604611947.030163) can1 0CF00400#007D7D000000F07D
(1604611947.031084) can1 0CFEF100#FBFFFEAAAA001FFF
(1604611947.032088) can1 18FEDF00#86FFFFFF7DFFFE00
(1604611947.040101) can1 0CF00400#007D7D000000F07D
(1604611947.041092) can1 18FD9400#0000FFFFFFFFFFFF
(1604611947.042145) can1 18FEF600#FEFEFEFEFFFFFEFF
(1604611947.049105) can1 0CF00400#007D7D000000F07D
(1604611947.050146) can1 0CF00300#FAFE00FFFF0C00FF
(1604611947.051101) can1 18FCFD00#FFFFFFFF0000FFFF
(1604611947.052088) can1 18FEDF00#86FFFFFF7DFFFE00
(1604611947.060101) can1 0CF00400#007D7D000000F07D
(1604611947.061109) can1 0CF00A00#00000000FFFFFFFF
(1604611947.062136) can1 18F0000F#207D7DF3007DFE63
(1604611947.069114) can1 0CF00400#007D7D000000F07D
(1604611947.070156) can1 18F00E00#A00FFE71FFFFFFFF
(1604611947.071095) can1 18FEF200#0000FFFEBF05FEFF
(1604611947.072090) can1 18FEDF00#86FFFFFF7DFFFE00
(1604611947.080087) can1 1CEBFF00#1109018406090184
(1604611947.081105) can1 0CF00400#007D7D000000F07D
(1604611947.082163) can1 10FDA300#FFFFFAFFFFFFFFFF
(1604611947.083089) can1 18FEE000#FFFFFFFF0F140A00
(1604611947.090165) can1 0CF00400#007D7D000000F07D
(1604611947.091093) can1 18FF4500#782AFA00FF0000AC
(1604611947.092093) can1 18FEDF00#86FFFFFF7DFFFE00
(1604611947.093089) can1 1CFE9200#FF8097FFFFFFFFFF
(1604611947.100102) can1 0CF00400#007D7D000000F07D
(1604611947.101103) can1 0CF00300#FAFE00FFFF0C00FF
(1604611947.102151) can1 18FFA800#FFFEFFFE04100FFB
(1604611947.109106) can1 0CF00400#007D7D000000F07D
(1604611947.110160) can1 0CF00A00#00000000FFFFFFFF
(1604611947.111093) can1 18FEDF00#86FFFFFF7DFFFE00
(1604611947.120102) can1 0CF00400#007D7D000000F07D
(1604611947.121093) can1 18F00E00#A00FFE71FFFFFFFF
(1604611947.122157) can1 18FDD000#FFFFFFFF19FFFFFF
(1604611947.129111) can1 0CF00400#007D7D000000F07D
(1604611947.130145) can1 0CFEF100#FBFFFEAAAA001FFF
(1604611947.131095) can1 18FEDF00#86FFFFFF7DFFFE00
(1604611947.139090) can1 1CEBFF00#1206090184060901
(1604611947.140097) can1 0CF00400#007D7D000000F07D
(1604611947.141101) can1 18FD9400#0000FFFFFFFFFFFF
(1604611947.142153) can1 18FEA600#0000FFFFFFFFFFFF
(1604611947.149101) can1 0CF00400#007D7D000000F07D
(1604611947.150148) can1 0CF00300#FAFE00FFFF0C00FF
(1604611947.151101) can1 18FCFD00#FFFFFFFF0000FFFF
(1604611947.152090) can1 18FEDF00#86FFFFFF7DFFFE00
(1604611947.160103) can1 0CF00400#007D7D000000F07D
(1604611947.161115) can1 0CF00A00#00000000FFFFFFFF
(1604611947.162149) can1 0CFD9200#F0FFFFFFFFC3FFFF
(1604611947.163078) can1 18F0000F#207D7DF3007DFE63
(1604611947.169099) can1 0CF00400#007D7D000000F07D
(1604611947.170156) can1 18F00E00#A00FFE71FFFFFFFF
(1604611947.171100) can1 18FEF200#0000FFFEBF05FEFF
(1604611947.172094) can1 18FF4600#FF000000FFFFFFFF
(1604611947.173089) can1 18FEDF00#86FFFFFF7DFFFE00
(1604611947.180102) can1 0CF00400#007D7D000000F07D
(1604611947.181107) can1 10FDA300#FFFFFAFFFFFFFFFF
(1604611947.182149) can1 18FEE000#FFFFFFFF0F140A00
(1604611947.190164) can1 0CF00400#007D7D000000F07D
(1604611947.191092) can1 18FF4500#782AFA00FF0000AC
(1604611947.192105) can1 18FEDF00#86FFFFFF7DFFFE00
(1604611947.193099) can1 1CFE9200#FF8097FFFFFFFFFF
(1604611947.199087) can1 1CEBFF00#13D4040901840609
(1604611947.200098) can1 0CF00400#007D7D000000F07D
(1604611947.201099) can1 0CF00300#FAFE00FFFF0C00FF
(1604611947.202135) can1 18FFA600#F0FFFEA7FAFA8A01
(1604611947.209106) can1 0CF00400#007D7D000000F07D
(1604611947.210156) can1 0CF00A00#00000000FFFFFFFF
(1604611947.211094) can1 18FEDF00#86FFFFFF7DFFFE00
(1604611947.220102) can1 0CF00400#007D7D000000F07D
(1604611947.221093) can1 18F00E00#A00FFE71FFFFFFFF
(1604611947.222150) can1 18FEF500#A9FFFFFFFEFFFFFF
(1604611947.230163) can1 0CF00400#007D7D000000F07D
(1604611947.231086) can1 0CFEF100#FBFFFEAAAA001FFF
(1604611947.232090) can1 18FEDF00#86FFFFFF7DFFFE00
(1604611947.240102) can1 0CF00400#007D7D000000F07D
(1604611947.241102) can1 18FD9400#0000FFFFFFFFFFFF
(1604611947.242142) can1 18FE5600#FE3CFFFF9FBF00FF
(1604611947.249114) can1 0CF00400#007D7D000000F07D
(1604611947.250145) can1 0CF00300#FAFE00FFFF0C00FF
(1604611947.251104) can1 18FCFD00#FFFFFFFF0000FFFF
(1604611947.252091) can1 18FEDF00#86FFFFFF7DFFFE00
(1604611947.259096) can1 1CEBFF00#140184060901AF00
(1604611947.260098) can1 0CF00400#007D7D000000F07D
(1604611947.261116) can1 0CF00A00#00000000FFFFFFFF
(1604611947.262138) can1 18F0000F#207D7DF3007DFE63
(1604611947.269108) can1 0CF00400#007D7D000000F07D
(1604611947.270145) can1 18F00E00#A00FFE71FFFFFFFF
(1604611947.271095) can1 18FEF200#0000FFFEBF05FEFF
(1604611947.272091) can1 18FEDF00#86FFFFFF7DFFFE00
(1604611947.280103) can1 0CF00400#007D7D000000F07D
(1604611947.281100) can1 10FDA300#FFFFFAFFFFFFFFFF
(1604611947.282150) can1 18FEE000#FFFFFFFF0F140A00
(1604611947.290159) can1 0CF00400#007D7D000000F07D
(1604611947.291093) can1 18FF4500#782AFA00FF0000AC
(1604611947.292091) can1 18FEDF00#86FFFFFF7DFFFE00
(1604611947.293098) can1 1CFE9200#FF8097FFFFFFFFFF
(1604611947.300103) can1 0CF00400#007D7D000000F07D
(1604611947.301099) can1 0CF00300#FAFE00FFFF0C00FF
(1604611947.302155) can1 18FFA800#FFFEFFFE04100FFB
(1604611947.309116) can1 0CF00400#007D7D000000F07D
(1604611947.310178) can1 0CF00A00#00000000FFFFFFFF
(1604611947.311096) can1 18FEDF00#86FFFFFF7DFFFE00
(1604611947.320092) can1 1CEBFF00#1503019C0103019B
(1604611947.321102) can1 0CF00400#007D7D000000F07D
(1604611947.322147) can1 18F00E00#A00FFE71FFFFFFFF
(1604611947.323098) can1 18FD0700#57FFFFFFFFFFFFFF
(1604611947.329101) can1 0CF00400#007D7D000000F07D
(1604611947.330140) can1 0CFEF100#FBFFFEAAAA001FFF
(1604611947.331094) can1 18FEDF00#86FFFFFF7DFFFE00
(1604611947.340103) can1 0CF00400#007D7D000000F07D
(1604611947.341102) can1 18FD9400#0000FFFFFFFFFFFF
(1604611947.342162) can1 18FD7C00#FFFFFBFFFFFFFFFF
(1604611947.349100) can1 0CF00400#007D7D000000F07D
(1604611947.350149) can1 0CF00300#FAFE00FFFF0C00FF
(1604611947.351102) can1 18FCFD00#FFFFFFFF0000FFFF
(1604611947.352091) can1 18FEDF00#86FFFFFF7DFFFE00
(1604611947.360103) can1 0CF00400#007D7D000000F07D
(1604611947.361111) can1 0CF00A00#00000000FFFFFFFF
(1604611947.362143) can1 18F0000F#207D7DF3007DFE63
(1604611947.369108) can1 0CF00400#007D7D000000F07D
(1604611947.370149) can1 18F00E00#A00FFE71FFFFFFFF
(1604611947.371096) can1 18FEF200#0000FFFEBF05FEFF
(1604611947.372091) can1 18FEDF00#86FFFFFF7DFFFE00
(1604611947.379089) can1 1CEBFF00#1601040189031301
(1604611947.380099) can1 0CF00400#007D7D000000F07D
(1604611947.381108) can1 10FDA300#FFFFFAFFFFFFFFFF
(1604611947.382145) can1 18FEE000#FFFFFFFF0F140A00
(1604611947.390167) can1 0CF00400#007D7D000000F07D
(1604611947.391088) can1 18FF4500#782AFA00FF0000AC
(1604611947.392097) can1 18FEDF00#86FFFFFF7DFFFE00
(1604611947.393096) can1 1CFE9200#FF8097FFFFFFFFFF
(1604611947.400105) can1 0CF00400#007D7D000000F07D
(1604611947.401101) can1 0CF00300#FAFE00FFFF0C00FF
(1604611947.402153) can1 18FEEE00#FEFEFFFEFFFFFFFF
(1604611947.409105) can1 0CF00400#007D7D000000F07D
(1604611947.410161) can1 0CF00A00#00000000FFFFFFFF
(1604611947.411096) can1 0CFD9200#F0FFFFFFFFC3FFFF
(1604611947.412095) can1 18FEDF00#86FFFFFF7DFFFE00
(1604611947.420099) can1 0CF00400#007D7D000000F07D
(1604611947.421117) can1 18F00E00#A00FFE71FFFFFFFF
(1604611947.422153) can1 18FF4600#FF000000FFFFFFFF
(1604611947.430166) can1 0CF00400#007D7D000000F07D
(1604611947.431089) can1 0CFEF100#FBFFFEAAAA001FFF
(1604611947.432091) can1 18FEDF00#86FFFFFF7DFFFE00
(1604611947.440081) can1 1CEBFF00#178A0313018B0313
(1604611947.441105) can1 0CF00400#007D7D000000F07D
(1604611947.442150) can1 18FD9400#0000FFFFFFFFFFFF
(1604611947.443104) can1 18FD8C00#FFFEFFFFFFFFFFFF
(1604611947.449117) can1 0CF00400#007D7D000000F07D
(1604611947.450150) can1 0CF00300#FAFE00FFFF0C00FF
(1604611947.451111) can1 18FCFD00#FFFFFFFF0000FFFF
(1604611947.452092) can1 18FEDF00#86FFFFFF7DFFFE00
(1604611947.460105) can1 0CF00400#007D7D000000F07D
(1604611947.461105) can1 0CF00A00#00000000FFFFFFFF
(1604611947.462145) can1 18F0000F#207D7DF3007DFE63
(1604611947.469125) can1 0CF00400#007D7D000000F07D
(1604611947.470162) can1 18F00E00#A00FFE71FFFFFFFF
(1604611947.471097) can1 18FEF200#0000FFFEBF05FEFF
(1604611947.472093) can1 18FEDF00#86FFFFFF7DFFFE00
(1604611947.480108) can1 0CF00400#007D7D000000F07D
(1604611947.481115) can1 10FDA300#FFFFFAFFFFFFFFFF
(1604611947.482148) can1 18FEE000#FFFFFFFF0F140A00
(1604611947.490165) can1 0CF00400#007D7D000000F07D
(1604611947.491088) can1 18FF4500#782AFA00FF0000AC
(1604611947.492092) can1 18FEDF00#86FFFFFF7DFFFE00
(1604611947.493095) can1 1CFE9200#FF8097FFFFFFFFFF
(1604611947.499093) can1 1CEBFF00#18018C0313018406
(1604611947.500100) can1 0CF00400#007D7D000000F07D
(1604611947.501101) can1 0CF00300#FAFE00FFFF0C00FF
(1604611947.502156) can1 18FFA800#FFFEFFFE04100FFB
(1604611947.503092) can1 18FEEF00#FEFFFFFEFFFFFF00
(1604611947.509102) can1 0CF00400#007D7D000000F07D
(1604611947.510175) can1 0CF00A00#00000000FFFFFFFF
(1604611947.511097) can1 18FEDF00#86FFFFFF7DFFFE00
(1604611947.520106) can1 0CF00400#007D7D000000F07D
(1604611947.521088) can1 18F00E00#A00FFE71FFFFFFFF
(1604611947.522169) can1 18FEDB00#FFFF0000FFFFFFFF
(1604611947.529128) can1 0CF00400#007D7D000000F07D
(1604611947.530151) can1 0CFEF100#FBFFFEAAAA001FFF
(1604611947.531098) can1 18FEDF00#86FFFFFF7DFFFE00
(1604611947.540107) can1 0CF00400#007D7D000000F07D
(1604611947.541105) can1 18FD9400#0000FFFFFFFFFFFF
(1604611947.542145) can1 18FEF600#FEFEFEFEFFFFFEFF
(1604611947.549110) can1 0CF00400#007D7D000000F07D
(1604611947.550151) can1 0CF00300#FAFE00FFFF0C00FF
(1604611947.551105) can1 18FCFD00#FFFFFFFF0000FFFF
(1604611947.552094) can1 18FEDF00#86FFFFFF7DFFFE00
(1604611947.559086) can1 1CEBFF00#1909018406090184
(1604611947.560101) can1 0CF00400#007D7D000000F07D
(1604611947.561112) can1 0CF00A00#00000000FFFFFFFF
(1604611947.562138) can1 18F0000F#207D7DF3007DFE63
(1604611947.569107) can1 0CF00400#007D7D000000F07D
(1604611947.570148) can1 18F00E00#A00FFE71FFFFFFFF
(1604611947.571098) can1 18FEF200#0000FFFEBF05FEFF
(1604611947.572093) can1 18FEDF00#86FFFFFF7DFFFE00
(1604611947.580105) can1 0CF00400#007D7D000000F07D
(1604611947.581116) can1 10FDA300#FFFFFAFFFFFFFFFF
(1604611947.582150) can1 18FEE000#FFFFFFFF0F140A00
(1604611947.590167) can1 0CF00400#007D7D000000F07D
(1604611947.591089) can1 18FF4500#782AFA00FF0000AC
(1604611947.592092) can1 18FEDF00#86FFFFFF7DFFFE00
(1604611947.593088) can1 1CFE9200#FF8097FFFFFFFFFF
(1604611947.600108) can1 0CF00400#007D7D000000F07D
(1604611947.601103) can1 0CF00300#FAFE00FFFF0C00FF
(1604611947.602147) can1 18FEA400#FFFFFFFFFFFF204A
(1604611947.609118) can1 0CF00400#007D7D000000F07D
(1604611947.610160) can1 0CF00A00#00000000FFFFFFFF
(1604611947.611097) can1 18FEDF00#86FFFFFF7DFFFE00
(1604611947.620106) can1 1CEBFF00#1A06090175020501
(1604611947.621100) can1 0CF00400#007D7D000000F07D
(1604611947.622153) can1 18F00E00#A00FFE71FFFFFFFF
(1604611947.623096) can1 18FDD000#FFFFFFFF19FFFFFF
(1604611947.629098) can1 0CF00400#007D7D000000F07D
(1604611947.630162) can1 0CFEF100#FBFFFEAAAA001FFF
(1604611947.631100) can1 18FEDF00#86FFFFFF7DFFFE00
(1604611947.640107) can1 0CF00400#007D7D000000F07D
(1604611947.641109) can1 18FD9400#0000FFFFFFFFFFFF
(1604611947.642162) can1 18FEA600#0000FFFFFFFFFFFF
(1604611947.649112) can1 0CF00400#007D7D000000F07D
(1604611947.650149) can1 0CF00300#FAFE00FFFF0C00FF
(1604611947.651106) can1 18FCFD00#FFFFFFFF0000FFFF
(1604611947.652094) can1 18FEDF00#86FFFFFF7DFFFE00
(1604611947.660106) can1 0CF00400#007D7D000000F07D
(1604611947.661113) can1 0CF00A00#00000000FFFFFFFF
(1604611947.662154) can1 0CFD9200#F0FFFFFFFFC3FFFF
(1604611947.663081) can1 18F0000F#207D7DF3007DFE63
(1604611947.669102) can1 0CF00400#007D7D000000F07D
(1604611947.670155) can1 18F00E00#A00FFE71FFFFFFFF
(1604611947.671104) can1 18FEF200#0000FFFEBF05FEFF
(1604611947.672098) can1 18FF4600#FF000000FFFFFFFF
(1604611947.673098) can1 18FEDF00#86FFFFFF7DFFFE00
(1604611947.680078) can1 1CEBFF00#1BF9130901FA1309
(1604611947.681108) can1 0CF00400#007D7D000000F07D
(1604611947.682156) can1 10FDA300#FFFFFAFFFFFFFFFF
(1604611947.683089) can1 18FEE000#FFFFFFFF0F140A00
(1604611947.690165) can1 0CF00400#007D7D000000F07D
(1604611947.691108) can1 18FF4500#782AFA00FF0000AC
(1604611947.692097) can1 18FEDF00#86FFFFFF7DFFFE00
(1604611947.693099) can1 1CFE9200#FF8097FFFFFFFFFF
(1604611947.700111) can1 0CF00400#007D7D000000F07D
(1604611947.701104) can1 0CF00300#FAFE00FFFF0C00FF
(1604611947.702154) can1 18FFA800#FFFEFFFE04100FFB
(1604611947.709113) can1 0CF00400#007D7D000000F07D
(1604611947.710167) can1 0CF00A00#00000000FFFFFFFF
(1604611947.711099) can1 18FEDF00#86FFFFFF7DFFFE00
(1604611947.720108) can1 0CF00400#007D7D000000F07D
(1604611947.721098) can1 18F00E00#A00FFE71FFFFFFFF
(1604611947.722150) can1 18FE6900#FFFFFFFFFFFF201D
(1604611947.729103) can1 0CF00400#007D7D000000F07D
(1604611947.730151) can1 0CFEF100#FBFFFEAAAA001FFF
(1604611947.731099) can1 18FEDF00#86FFFFFF7DFFFE00
(1604611947.740139) can1 1CEBFF00#1C01FFFFFFFFFFFF
(1604611947.741108) can1 0CF00400#007D7D000000F07D
(1604611947.742162) can1 18FD9400#0000FFFFFFFFFFFF
(1604611947.743098) can1 18FEBD00#FFFF0000FFFFFFFF
(1604611947.749104) can1 0CF00400#007D7D000000F07D
(1604611947.750152) can1 0CF00300#FAFE00FFFF0C00FF
(1604611947.751107) can1 18FCFD00#FFFFFFFF0000FFFF
(1604611947.752094) can1 18FEDF00#86FFFFFF7DFFFE00
(1604611947.760107) can1 0CF00400#007D7D000000F07D
(1604611947.761113) can1 0CF00A00#00000000FFFFFFFF
(1604611947.762137) can1 18F0000F#207D7DF3007DFE63
(1604611947.769113) can1 0CF00400#007D7D000000F07D
(1604611947.770149) can1 18F00E00#A00FFE71FFFFFFFF
(1604611947.771098) can1 18FEF200#0000FFFEBF05FEFF
(1604611947.772096) can1 18FEDF00#86FFFFFF7DFFFE00
(1604611947.780108) can1 0CF00400#007D7D000000F07D
(1604611947.781110) can1 10FDA300#FFFFFAFFFFFFFFFF
(1604611947.782151) can1 18FEE000#FFFFFFFF0F140A00
(1604611947.790168) can1 0CF00400#007D7D000000F07D
(1604611947.791092) can1 18FF4500#782AFA00FF0000AC
(1604611947.792095) can1 18FEDF00#86FFFFFF7DFFFE00
(1604611947.793098) can1 1CFE9200#FF8097FFFFFFFFFF
(1604611947.800107) can1 0CF00400#007D7D000000F07D
(1604611947.801103) can1 0CF00300#FAFE00FFFF0C00FF
(1604611947.802143) can1 18FEE400#A07FFDFCF0FFFFFF
(1604611947.809112) can1 0CF00400#007D7D000000F07D
(1604611947.810160) can1 0CF00A00#00000000FFFFFFFF
(1604611947.811099) can1 18FEDF00#86FFFFFF7DFFFE00
(1604611947.820108) can1 0CF00400#007D7D000000F07D
(1604611947.821100) can1 18F00E00#A00FFE71FFFFFFFF
(1604611947.822158) can1 18FEDD00#FF0000FFFFFFFFFF
(1604611947.829112) can1 0CF00400#007D7D000000F07D
(1604611947.830144) can1 0CFEF100#FBFFFEAAAA001FFF
(1604611947.831099) can1 18FEDF00#86FFFFFF7DFFFE00
(1604611947.840107) can1 0CF00400#007D7D000000F07D
(1604611947.841106) can1 18FD9400#0000FFFFFFFFFFFF
(1604611947.842158) can1 18FE9A00#2027FFFFFFFFFFFF
(1604611947.849103) can1 0CF00400#007D7D000000F07D
(1604611947.850153) can1 0CF00300#FAFE00FFFF0C00FF
(1604611947.851108) can1 18FCFD00#FFFFFFFF0000FFFF
(1604611947.852096) can1 18FEDF00#86FFFFFF7DFFFE00
(1604611947.860119) can1 0CF00400#007D7D000000F07D
(1604611947.861118) can1 0CF00A00#00000000FFFFFFFF
(1604611947.862143) can1 18F0000F#207D7DF3007DFE63
(1604611947.863091) can1 18FE9900#73A7FFFFFFFFFFFF
(1604611947.869121) can1 0CF00400#007D7D000000F07D
(1604611947.870154) can1 18F00E00#A00FFE71FFFFFFFF
(1604611947.871100) can1 18FEF200#0000FFFEBF05FEFF
(1604611947.872095) can1 18FEDF00#86FFFFFF7DFFFE00
(1604611947.880109) can1 0CF00400#007D7D000000F07D
(1604611947.881116) can1 10FDA300#FFFFFAFFFFFFFFFF
(1604611947.882152) can1 18FEE000#FFFFFFFF0F140A00
(1604611947.883100) can1 18FE9800#0032FFFFFFFFFFFF
(1604611947.890165) can1 0CF00400#007D7D000000F07D
(1604611947.891097) can1 18FF4500#782AFA00FF0000AC
(1604611947.892096) can1 18FEDF00#86FFFFFF7DFFFE00
(1604611947.893095) can1 1CFE9200#FF8097FFFFFFFFFF
(1604611947.900103) can1 0CF00400#007D7D000000F07D
(1604611947.901108) can1 0CF00300#FAFE00FFFF0C00FF
(1604611947.902167) can1 18FFA800#FFFEFFFE04100FFB
(1604611947.903106) can1 18FE9700#0032FFFFFFFFFFFF
(1604611947.909112) can1 0CF00400#007D7D000000F07D
(1604611947.910169) can1 0CF00A00#00000000FFFFFFFF
(1604611947.911101) can1 0CFD9200#F0FFFFFFFFC3FFFF
(1604611947.912096) can1 18FEDF00#86FFFFFF7DFFFE00
(1604611947.920129) can1 0CF00400#007D7D000000F07D
(1604611947.921110) can1 18F00E00#A00FFE71FFFFFFFF
(1604611947.922156) can1 18FF4600#FF000000FFFFFFFF
(1604611947.923106) can1 18FDD300#FFFEFFFFFFFFFFFF
(1604611947.929119) can1 0CF00400#007D7D000000F07D
(1604611947.930147) can1 0CFEF100#FBFFFEAAAA001FFF
(1604611947.931099) can1 18FEDF00#86FFFFFF7DFFFE00
(1604611947.932099) can1 18FEC100#81F5FB0081F5FB00
(1604611947.940110) can1 0CF00400#007D7D000000F07D
(1604611947.941113) can1 18FD9400#0000FFFFFFFFFFFF
(1604611947.942167) can1 18FD8C00#FFFEFFFFFFFFFFFF
(1604611947.943096) can1 18FEF700#FFFFFFFFEA00FFFF
(1604611947.949110) can1 0CF00400#007D7D000000F07D
(1604611947.950180) can1 0CF00300#FAFE00FFFF0C00FF
(1604611947.951110) can1 18FCFD00#FFFFFFFF0000FFFF
(1604611947.952097) can1 18FEDF00#86FFFFFF7DFFFE00
(1604611947.960104) can1 0CF00400#007D7D000000F07D
(1604611947.961121) can1 0CF00A00#00000000FFFFFFFF
(1604611947.962145) can1 18F0000F#207D7DF3007DFE63
(1604611947.963096) can1 18FF4A00#6F00C0FFFFFFFFFF
(1604611947.969105) can1 0CF00400#007D7D000000F07D
(1604611947.970150) can1 18F00E00#A00FFE71FFFFFFFF
(1604611947.971101) can1 18FEF200#0000FFFEBF05FEFF
(1604611947.972097) can1 18FEDF00#86FFFFFF7DFFFE00
(1604611947.980105) can1 0CF00400#007D7D000000F07D
(1604611947.981109) can1 10FDA300#FFFFFAFFFFFFFFFF
(1604611947.982152) can1 18FEE000#FFFFFFFF0F140A00
(1604611947.983080) can1 18FD0900#FFFFFFFF0C78B601
(1604611947.990171) can1 0CF00400#007D7D000000F07D
(1604611947.991099) can1 18FF4500#782AFA00FF0000AC
(1604611947.992096) can1 18FEDF00#86FFFFFF7DFFFE00
(1604611947.993104) can1 1CFE9200#FF8097FFFFFFFFFF
